Element, I1_1, Ang1_1, I1_2, Ang1_2, I1_3, Ang1_3, I1_4, Ang1_4, Iresid1, AngResid1, I2_1, Ang2_1, I2_2, Ang2_2, I2_3, Ang2_3, I2_4, Ang2_4, Iresid2, AngResid2, I3_1, Ang3_1, I3_2, Ang3_2, I3_3, Ang3_3, I3_4, Ang3_4, Iresid3, AngResid3
Vsource.SOURCE,    22.3863,  -145.66,    25.5162,    95.01,    24.3449,   -31.70,          0,     0.00, 2.32944E-11,   -38.66,    22.3863,    34.34,    25.5162,   -84.99,    24.3449,   148.30,          0,     0.00, 2.32944E-11,   141.34,          0,     0.00,          0,     0.00,          0,     0.00,          0,     0.00,          0,     0.00
Transformer.SUB,    22.3863,    34.34,    25.5162,   -84.99,    24.3449,   148.30,          0,     0.00, 7.45058E-9,     0.00,    657.538,  -178.63,    631.472,    68.87,    711.608,   -61.96,    109.825,    29.94, 3.57628E-7,   180.00,          0,     0.00,          0,     0.00,          0,     0.00,          0,     0.00,          0,     0.00
Transformer.TRANS_N650-N630,    657.538,     1.37,    631.472,  -111.13,    711.608,   118.04,    109.825,  -150.06, 4.49746E-12,  -159.27,    1036.12,  -178.63,    995.046,    68.87,    1121.32,   -61.96,    173.058,    29.94, 7.34095E-6,  -153.33,          0,     0.00,          0,     0.00,          0,     0.00,          0,     0.00,          0,     0.00
Transformer.T633-634, 0.000273617,  -112.17, 0.000287428,   130.54, 0.000270535,     6.20, 0.000010929,    15.18, 0.0000109288,  -164.82, 2.19652E-9,   122.01,          0,     0.00, 9.31323E-10,   180.00, 0.0000546427,  -164.82, 0.0000546442,  -164.82,          0,     0.00,          0,     0.00,          0,     0.00,          0,     0.00,          0,     0.00
Transformer.XFMR_652_A_1,    23.0926,   -25.61,    23.0926,   154.39,          0,     0.00,          0,     0.00, 0.00137147,  -115.51,    230.927,   154.40,    230.927,   -25.61,          0,     0.00,          0,     0.00,  0.0274295,  -115.52,    230.925,   154.39,    230.925,   -25.60,          0,     0.00,          0,     0.00,  0.0548589,    64.48
Transformer.XFMR_652_A_2,    23.0926,   -25.61,    23.0926,   154.39,          0,     0.00,          0,     0.00, 0.00137147,  -115.51,    230.927,   154.40,    230.927,   -25.61,          0,     0.00,          0,     0.00,  0.0274295,  -115.52,    230.925,   154.39,    230.925,   -25.60,          0,     0.00,          0,     0.00,  0.0548589,    64.48
Transformer.XFMR_652_A_3,    23.0926,   -25.61,    23.0926,   154.39,          0,     0.00,          0,     0.00, 0.00137147,  -115.51,    230.927,   154.40,    230.927,   -25.61,          0,     0.00,          0,     0.00,  0.0274295,  -115.52,    230.925,   154.39,    230.925,   -25.60,          0,     0.00,          0,     0.00,  0.0548589,    64.48
Transformer.XFMR_652_A_4,    23.0926,   -25.61,    23.0926,   154.39,          0,     0.00,          0,     0.00, 0.00137147,  -115.51,    230.927,   154.40,    230.927,   -25.61,          0,     0.00,          0,     0.00,  0.0274295,  -115.52,    230.925,   154.39,    230.925,   -25.60,          0,     0.00,          0,     0.00,  0.0548589,    64.48
Transformer.XFMR_652_A_5,    23.0926,   -25.61,    23.0926,   154.39,          0,     0.00,          0,     0.00, 0.00137147,  -115.51,    230.927,   154.40,    230.927,   -25.61,          0,     0.00,          0,     0.00,  0.0274295,  -115.52,    230.925,   154.39,    230.925,   -25.60,          0,     0.00,          0,     0.00,  0.0548589,    64.48
Transformer.XFMR_611_C_1,    22.6412,    93.64,    22.6412,   -86.36,          0,     0.00,          0,     0.00, 0.00134845,     3.74,    226.413,   -86.35,    226.413,    93.64,          0,     0.00,          0,     0.00,  0.0269689,     3.73,    226.411,   -86.36,    226.411,    93.65,          0,     0.00,          0,     0.00,  0.0539378,  -176.27
Transformer.XFMR_611_C_2,    22.6412,    93.64,    22.6412,   -86.36,          0,     0.00,          0,     0.00, 0.00134845,     3.74,    226.413,   -86.35,    226.413,    93.64,          0,     0.00,          0,     0.00,  0.0269689,     3.73,    226.411,   -86.36,    226.411,    93.65,          0,     0.00,          0,     0.00,  0.0539378,  -176.27
Transformer.XFMR_611_C_3,    22.6412,    93.64,    22.6412,   -86.36,          0,     0.00,          0,     0.00, 0.00134845,     3.74,    226.413,   -86.35,    226.413,    93.64,          0,     0.00,          0,     0.00,  0.0269689,     3.73,    226.411,   -86.36,    226.411,    93.65,          0,     0.00,          0,     0.00,  0.0539378,  -176.27
Transformer.XFMR_611_C_4,    22.6412,    93.64,    22.6412,   -86.36,          0,     0.00,          0,     0.00, 0.00134845,     3.74,    226.413,   -86.35,    226.413,    93.64,          0,     0.00,          0,     0.00,  0.0269689,     3.73,    226.411,   -86.36,    226.411,    93.65,          0,     0.00,          0,     0.00,  0.0539378,  -176.27
Transformer.XFMR_611_C_5,    22.6412,    93.64,    22.6412,   -86.36,          0,     0.00,          0,     0.00, 0.00134845,     3.74,    226.413,   -86.35,    226.413,    93.64,          0,     0.00,          0,     0.00,  0.0269689,     3.73,    226.411,   -86.36,    226.411,    93.65,          0,     0.00,          0,     0.00,  0.0539378,  -176.27
Transformer.XFMR_684_C_1,    22.6514,    93.68,    22.6514,   -86.31,          0,     0.00,          0,     0.00, 0.00134897,     3.79,    226.515,   -86.30,    226.515,    93.69,          0,     0.00,          0,     0.00,  0.0269794,     3.78,    226.513,   -86.31,    226.513,    93.70,          0,     0.00,          0,     0.00,  0.0539588,  -176.22
Transformer.XFMR_684_C_2,    22.6514,    93.68,    22.6514,   -86.31,          0,     0.00,          0,     0.00, 0.00134897,     3.79,    226.515,   -86.30,    226.515,    93.69,          0,     0.00,          0,     0.00,  0.0269794,     3.78,    226.513,   -86.31,    226.513,    93.70,          0,     0.00,          0,     0.00,  0.0539588,  -176.22
Transformer.XFMR_684_C_3,    22.6514,    93.68,    22.6514,   -86.31,          0,     0.00,          0,     0.00, 0.00134897,     3.79,    226.515,   -86.30,    226.515,    93.69,          0,     0.00,          0,     0.00,  0.0269794,     3.78,    226.513,   -86.31,    226.513,    93.70,          0,     0.00,          0,     0.00,  0.0539588,  -176.22
Transformer.XFMR_684_C_4,    22.6514,    93.68,    22.6514,   -86.31,          0,     0.00,          0,     0.00, 0.00134897,     3.79,    226.515,   -86.30,    226.515,    93.69,          0,     0.00,          0,     0.00,  0.0269794,     3.78,    226.513,   -86.31,    226.513,    93.70,          0,     0.00,          0,     0.00,  0.0539588,  -176.22
Transformer.XFMR_684_C_5,    22.6514,    93.68,    22.6514,   -86.31,          0,     0.00,          0,     0.00, 0.00134897,     3.79,    226.515,   -86.30,    226.515,    93.69,          0,     0.00,          0,     0.00,  0.0269794,     3.78,    226.513,   -86.31,    226.513,    93.70,          0,     0.00,          0,     0.00,  0.0539588,  -176.22
Transformer.XFMR_684_A_1,    23.1206,   -25.49,    23.1206,   154.51,          0,     0.00,          0,     0.00,  0.0013729,  -115.39,    231.207,   154.52,    231.207,   -25.49,          0,     0.00,          0,     0.00,   0.027458,  -115.40,    231.205,   154.51,    231.205,   -25.48,          0,     0.00,          0,     0.00,   0.054916,    64.60
Transformer.XFMR_684_A_2,    23.1206,   -25.49,    23.1206,   154.51,          0,     0.00,          0,     0.00,  0.0013729,  -115.39,    231.207,   154.52,    231.207,   -25.49,          0,     0.00,          0,     0.00,   0.027458,  -115.40,    231.205,   154.51,    231.205,   -25.48,          0,     0.00,          0,     0.00,   0.054916,    64.60
Transformer.XFMR_684_A_3,    23.1206,   -25.49,    23.1206,   154.51,          0,     0.00,          0,     0.00,  0.0013729,  -115.39,    231.207,   154.52,    231.207,   -25.49,          0,     0.00,          0,     0.00,   0.027458,  -115.40,    231.205,   154.51,    231.205,   -25.48,          0,     0.00,          0,     0.00,   0.054916,    64.60
Transformer.XFMR_684_A_4,    23.1206,   -25.49,    23.1206,   154.51,          0,     0.00,          0,     0.00,  0.0013729,  -115.39,    231.207,   154.52,    231.207,   -25.49,          0,     0.00,          0,     0.00,   0.027458,  -115.40,    231.205,   154.51,    231.205,   -25.48,          0,     0.00,          0,     0.00,   0.054916,    64.60
Transformer.XFMR_684_A_5,    23.1206,   -25.49,    23.1206,   154.51,          0,     0.00,          0,     0.00,  0.0013729,  -115.39,    231.207,   154.52,    231.207,   -25.49,          0,     0.00,          0,     0.00,   0.027458,  -115.40,    231.205,   154.51,    231.205,   -25.48,          0,     0.00,          0,     0.00,   0.054916,    64.60
Transformer.XFMR_645_B_1,    24.3485,  -139.60,    24.3485,    40.40,          0,     0.00,          0,     0.00, 0.00143553,   130.50,    243.486,    40.41,    243.486,  -139.60,          0,     0.00,          0,     0.00,  0.0287106,   130.49,    243.484,    40.40,    243.484,  -139.59,          0,     0.00,          0,     0.00,  0.0574213,   -49.51
Transformer.XFMR_645_B_2,    24.3485,  -139.60,    24.3485,    40.40,          0,     0.00,          0,     0.00, 0.00143553,   130.50,    243.486,    40.41,    243.486,  -139.60,          0,     0.00,          0,     0.00,  0.0287106,   130.49,    243.484,    40.40,    243.484,  -139.59,          0,     0.00,          0,     0.00,  0.0574213,   -49.51
Transformer.XFMR_645_B_3,    24.3485,  -139.60,    24.3485,    40.40,          0,     0.00,          0,     0.00, 0.00143553,   130.50,    243.486,    40.41,    243.486,  -139.60,          0,     0.00,          0,     0.00,  0.0287106,   130.49,    243.484,    40.40,    243.484,  -139.59,          0,     0.00,          0,     0.00,  0.0574213,   -49.51
Transformer.XFMR_645_B_4,    24.3485,  -139.60,    24.3485,    40.40,          0,     0.00,          0,     0.00, 0.00143553,   130.50,    243.486,    40.41,    243.486,  -139.60,          0,     0.00,          0,     0.00,  0.0287106,   130.49,    243.484,    40.40,    243.484,  -139.59,          0,     0.00,          0,     0.00,  0.0574213,   -49.51
Transformer.XFMR_645_B_5,    24.3485,  -139.60,    24.3485,    40.40,          0,     0.00,          0,     0.00, 0.00143553,   130.50,    243.486,    40.41,    243.486,  -139.60,          0,     0.00,          0,     0.00,  0.0287106,   130.49,    243.484,    40.40,    243.484,  -139.59,          0,     0.00,          0,     0.00,  0.0574213,   -49.51
Transformer.XFMR_645_C_1,    22.7328,    96.04,    22.7328,   -83.96,          0,     0.00,          0,     0.00, 0.00135312,     6.14,    227.329,   -83.95,    227.329,    96.04,          0,     0.00,          0,     0.00,  0.0270623,     6.13,    227.327,   -83.96,    227.326,    96.05,          0,     0.00,          0,     0.00,  0.0541247,  -173.87
Transformer.XFMR_645_C_2,    22.7328,    96.04,    22.7328,   -83.96,          0,     0.00,          0,     0.00, 0.00135312,     6.14,    227.329,   -83.95,    227.329,    96.04,          0,     0.00,          0,     0.00,  0.0270623,     6.13,    227.327,   -83.96,    227.326,    96.05,          0,     0.00,          0,     0.00,  0.0541247,  -173.87
Transformer.XFMR_645_C_3,    22.7328,    96.04,    22.7328,   -83.96,          0,     0.00,          0,     0.00, 0.00135312,     6.14,    227.329,   -83.95,    227.329,    96.04,          0,     0.00,          0,     0.00,  0.0270623,     6.13,    227.327,   -83.96,    227.326,    96.05,          0,     0.00,          0,     0.00,  0.0541247,  -173.87
Transformer.XFMR_645_C_4,    22.7328,    96.04,    22.7328,   -83.96,          0,     0.00,          0,     0.00, 0.00135312,     6.14,    227.329,   -83.95,    227.329,    96.04,          0,     0.00,          0,     0.00,  0.0270623,     6.13,    227.327,   -83.96,    227.326,    96.05,          0,     0.00,          0,     0.00,  0.0541247,  -173.87
Transformer.XFMR_645_C_5,    22.7328,    96.04,    22.7328,   -83.96,          0,     0.00,          0,     0.00, 0.00135312,     6.14,    227.329,   -83.95,    227.329,    96.04,          0,     0.00,          0,     0.00,  0.0270623,     6.13,    227.327,   -83.96,    227.326,    96.05,          0,     0.00,          0,     0.00,  0.0541247,  -173.87
Transformer.XFMR_633_A_1,    23.0219,   -22.29,    23.0219,   157.71,          0,     0.00,          0,     0.00, 0.00136787,  -112.18,     230.22,   157.72,     230.22,   -22.28,          0,     0.00,          0,     0.00,  0.0273573,  -112.19,    230.218,   157.71,    230.218,   -22.27,          0,     0.00,          0,     0.00,  0.0547147,    67.81
Transformer.XFMR_633_A_2,    23.0219,   -22.29,    23.0219,   157.71,          0,     0.00,          0,     0.00, 0.00136787,  -112.18,     230.22,   157.72,     230.22,   -22.28,          0,     0.00,          0,     0.00,  0.0273573,  -112.19,    230.218,   157.71,    230.218,   -22.27,          0,     0.00,          0,     0.00,  0.0547147,    67.81
Transformer.XFMR_633_A_3,    23.0219,   -22.29,    23.0219,   157.71,          0,     0.00,          0,     0.00, 0.00136787,  -112.18,     230.22,   157.72,     230.22,   -22.28,          0,     0.00,          0,     0.00,  0.0273573,  -112.19,    230.218,   157.71,    230.218,   -22.27,          0,     0.00,          0,     0.00,  0.0547147,    67.81
Transformer.XFMR_633_A_4,    23.0219,   -22.29,    23.0219,   157.71,          0,     0.00,          0,     0.00, 0.00136787,  -112.18,     230.22,   157.72,     230.22,   -22.28,          0,     0.00,          0,     0.00,  0.0273573,  -112.19,    230.218,   157.71,    230.218,   -22.27,          0,     0.00,          0,     0.00,  0.0547147,    67.81
Transformer.XFMR_633_A_5,    23.0219,   -22.29,    23.0219,   157.71,          0,     0.00,          0,     0.00, 0.00136787,  -112.18,     230.22,   157.72,     230.22,   -22.28,          0,     0.00,          0,     0.00,  0.0273573,  -112.19,    230.218,   157.71,    230.218,   -22.27,          0,     0.00,          0,     0.00,  0.0547147,    67.81
Transformer.XFMR_633_B_1,    24.3755,  -139.59,    24.3755,    40.42,          0,     0.00,          0,     0.00, 0.00143691,   130.52,    243.756,    40.43,    243.757,  -139.58,          0,     0.00,          0,     0.00,  0.0287382,   130.51,    243.754,    40.41,    243.754,  -139.57,          0,     0.00,          0,     0.00,  0.0574765,   -49.49
Transformer.XFMR_633_B_2,    24.3755,  -139.59,    24.3755,    40.42,          0,     0.00,          0,     0.00, 0.00143691,   130.52,    243.756,    40.43,    243.757,  -139.58,          0,     0.00,          0,     0.00,  0.0287382,   130.51,    243.754,    40.41,    243.754,  -139.57,          0,     0.00,          0,     0.00,  0.0574765,   -49.49
Transformer.XFMR_633_B_3,    24.3755,  -139.59,    24.3755,    40.42,          0,     0.00,          0,     0.00, 0.00143691,   130.52,    243.756,    40.43,    243.757,  -139.58,          0,     0.00,          0,     0.00,  0.0287382,   130.51,    243.754,    40.41,    243.754,  -139.57,          0,     0.00,          0,     0.00,  0.0574765,   -49.49
Transformer.XFMR_633_B_4,    24.3755,  -139.59,    24.3755,    40.42,          0,     0.00,          0,     0.00, 0.00143691,   130.52,    243.756,    40.43,    243.757,  -139.58,          0,     0.00,          0,     0.00,  0.0287382,   130.51,    243.754,    40.41,    243.754,  -139.57,          0,     0.00,          0,     0.00,  0.0574765,   -49.49
Transformer.XFMR_633_B_5,    24.3755,  -139.59,    24.3755,    40.42,          0,     0.00,          0,     0.00, 0.00143691,   130.52,    243.756,    40.43,    243.757,  -139.58,          0,     0.00,          0,     0.00,  0.0287382,   130.51,    243.754,    40.41,    243.754,  -139.57,          0,     0.00,          0,     0.00,  0.0574765,   -49.49
Transformer.XFMR_633_C_1,    22.7199,    96.08,    22.7199,   -83.92,          0,     0.00,          0,     0.00, 0.00135246,     6.18,      227.2,   -83.91,      227.2,    96.09,          0,     0.00,          0,     0.00,  0.0270492,     6.18,    227.198,   -83.92,    227.198,    96.09,          0,     0.00,          0,     0.00,  0.0540985,  -173.82
Transformer.XFMR_633_C_2,    22.7199,    96.08,    22.7199,   -83.92,          0,     0.00,          0,     0.00, 0.00135246,     6.18,      227.2,   -83.91,      227.2,    96.09,          0,     0.00,          0,     0.00,  0.0270492,     6.18,    227.198,   -83.92,    227.198,    96.09,          0,     0.00,          0,     0.00,  0.0540985,  -173.82
Transformer.XFMR_633_C_3,    22.7199,    96.08,    22.7199,   -83.92,          0,     0.00,          0,     0.00, 0.00135246,     6.18,      227.2,   -83.91,      227.2,    96.09,          0,     0.00,          0,     0.00,  0.0270492,     6.18,    227.198,   -83.92,    227.198,    96.09,          0,     0.00,          0,     0.00,  0.0540985,  -173.82
Transformer.XFMR_633_C_4,    22.7199,    96.08,    22.7199,   -83.92,          0,     0.00,          0,     0.00, 0.00135246,     6.18,      227.2,   -83.91,      227.2,    96.09,          0,     0.00,          0,     0.00,  0.0270492,     6.18,    227.198,   -83.92,    227.198,    96.09,          0,     0.00,          0,     0.00,  0.0540985,  -173.82
Transformer.XFMR_633_C_5,    22.7199,    96.08,    22.7199,   -83.92,          0,     0.00,          0,     0.00, 0.00135246,     6.18,      227.2,   -83.91,      227.2,    96.09,          0,     0.00,          0,     0.00,  0.0270492,     6.18,    227.198,   -83.92,    227.198,    96.09,          0,     0.00,          0,     0.00,  0.0540985,  -173.82
Transformer.XFMR_632_A_1,    23.0473,   -22.21,    23.0473,   157.79,          0,     0.00,          0,     0.00, 0.00136916,  -112.11,    230.474,   157.80,    230.474,   -22.21,          0,     0.00,          0,     0.00,  0.0273833,  -112.12,    230.472,   157.79,    230.472,   -22.20,          0,     0.00,          0,     0.00,  0.0547665,    67.88
Transformer.XFMR_632_A_2,    23.0473,   -22.21,    23.0473,   157.79,          0,     0.00,          0,     0.00, 0.00136916,  -112.11,    230.474,   157.80,    230.474,   -22.21,          0,     0.00,          0,     0.00,  0.0273833,  -112.12,    230.472,   157.79,    230.472,   -22.20,          0,     0.00,          0,     0.00,  0.0547665,    67.88
Transformer.XFMR_632_A_3,    23.0473,   -22.21,    23.0473,   157.79,          0,     0.00,          0,     0.00, 0.00136916,  -112.11,    230.474,   157.80,    230.474,   -22.21,          0,     0.00,          0,     0.00,  0.0273833,  -112.12,    230.472,   157.79,    230.472,   -22.20,          0,     0.00,          0,     0.00,  0.0547665,    67.88
Transformer.XFMR_632_A_4,    23.0473,   -22.21,    23.0473,   157.79,          0,     0.00,          0,     0.00, 0.00136916,  -112.11,    230.474,   157.80,    230.474,   -22.21,          0,     0.00,          0,     0.00,  0.0273833,  -112.12,    230.472,   157.79,    230.472,   -22.20,          0,     0.00,          0,     0.00,  0.0547665,    67.88
Transformer.XFMR_632_A_5,    23.0473,   -22.21,    23.0473,   157.79,          0,     0.00,          0,     0.00, 0.00136916,  -112.11,    230.474,   157.80,    230.474,   -22.21,          0,     0.00,          0,     0.00,  0.0273833,  -112.12,    230.472,   157.79,    230.472,   -22.20,          0,     0.00,          0,     0.00,  0.0547665,    67.88
Transformer.XFMR_632_B_1,    24.3889,  -139.51,    24.3889,    40.49,          0,     0.00,          0,     0.00, 0.00143759,   130.59,     243.89,    40.50,     243.89,  -139.51,          0,     0.00,          0,     0.00,  0.0287518,   130.59,    243.888,    40.49,    243.887,  -139.50,          0,     0.00,          0,     0.00,  0.0575037,   -49.41
