Element, I1_1, Ang1_1, I1_2, Ang1_2, I1_3, Ang1_3, I1_4, Ang1_4, Iresid1, AngResid1, I2_1, Ang2_1, I2_2, Ang2_2, I2_3, Ang2_3, I2_4, Ang2_4, Iresid2, AngResid2, I3_1, Ang3_1, I3_2, Ang3_2, I3_3, Ang3_3, I3_4, Ang3_4, Iresid3, AngResid3
Vsource.SOURCE,    272.996,   -63.96,    272.126,   177.12,    273.741,    56.61,          0,     0.00,    3.29535,  -112.85,    272.996,   116.04,    272.126,    -2.88,    273.741,  -123.39,          0,     0.00,    3.29535,    67.15,          0,     0.00,          0,     0.00,          0,     0.00,          0,     0.00,          0,     0.00
Transformer.TRANS_N650_N630,    272.996,   116.04,    272.126,    -2.88,    273.741,  -123.39,    3.29535,  -112.85, 7.08635E-11,  -131.13,    473.194,   -63.96,    471.686,   177.12,    474.484,    56.61,    5.71194,    67.15, 2.00362E-7,  -116.13,          0,     0.00,          0,     0.00,          0,     0.00,          0,     0.00,          0,     0.00
Line.OL632-645,    1.21376,   -92.54,    1.21809,   147.32,          0,     0.00,          0,     0.00,    1.21319,  -152.79,     1.2138,    87.45,    1.21805,   -32.70,          0,     0.00,          0,     0.00,    1.21319,    27.20,          0,     0.00,          0,     0.00,          0,     0.00,          0,     0.00,          0,     0.00
Line.OL645-646, 0.000159188,     7.96, 0.000161074,  -130.46,          0,     0.00,          0,     0.00, 0.000113687,   -62.14, 1.63709E-11,     0.00, 3.10829E-11,   110.56,          0,     0.00,          0,     0.00, 2.9611E-11,    79.38,          0,     0.00,          0,     0.00,          0,     0.00,          0,     0.00,          0,     0.00
Line.OL630-632,    473.194,   116.04,    471.686,    -2.88,    474.484,  -123.39,          0,     0.00,    5.71194,    67.15,    473.193,   -63.96,    471.685,   177.12,    474.483,    56.61,          0,     0.00,    5.71202,  -112.85,          0,     0.00,          0,     0.00,          0,     0.00,          0,     0.00,          0,     0.00
Line.OL632-6321,     473.16,   116.34,    471.678,    -2.44,    474.453,  -122.95,          0,     0.00,    6.68912,    60.56,     473.16,   -63.66,    471.677,   177.56,    474.453,    57.05,          0,     0.00,    6.68914,  -119.44,          0,     0.00,          0,     0.00,          0,     0.00,          0,     0.00,          0,     0.00
Line.OL6321-671,     473.16,   116.34,    471.677,    -2.44,    474.453,  -122.95,          0,     0.00,    6.68914,    60.56,    473.159,   -63.66,    471.676,   177.56,    474.452,    57.05,          0,     0.00,    6.68921,  -119.44,          0,     0.00,          0,     0.00,          0,     0.00,          0,     0.00,          0,     0.00
Line.OL671-680,    1.24501,    26.16,    1.24126,   -92.99,   0.967938,   146.41,          0,     0.00,   0.291067,   -32.19,    1.24512,  -153.87,    1.24122,    86.97,   0.967917,   -33.63,          0,     0.00,    0.29108,   147.82,          0,     0.00,          0,     0.00,          0,     0.00,          0,     0.00,          0,     0.00
Line.OL671-684,     2.4903,    26.15,    2.49735,   146.76,          0,     0.00,          0,     0.00,    2.47084,    86.60,    2.49028,  -153.85,    2.49738,   -33.25,          0,     0.00,          0,     0.00,    2.47084,   -93.41,          0,     0.00,          0,     0.00,          0,     0.00,          0,     0.00,          0,     0.00
Line.OL684-611,    1.24868,   146.76,          0,     0.00,          0,     0.00,          0,     0.00,    1.24868,   146.76,    1.24869,   -33.25,          0,     0.00,          0,     0.00,          0,     0.00,    1.24869,   -33.25,          0,     0.00,          0,     0.00,          0,     0.00,          0,     0.00,          0,     0.00
Line.UL684-652,    1.24512,    26.16,          0,     0.00,          0,     0.00,          0,     0.00,    1.24512,    26.16,    1.24514,  -153.87,          0,     0.00,          0,     0.00,          0,     0.00,    1.24514,  -153.87,          0,     0.00,          0,     0.00,          0,     0.00,          0,     0.00,          0,     0.00
Line.UL692-675,    473.221,   117.09,    471.728,    -1.99,    474.526,  -122.23,          0,     0.00,    4.55242,    50.78,    473.221,   -62.91,    471.728,   178.01,    474.526,    57.77,          0,     0.00,    4.55244,  -129.22,          0,     0.00,          0,     0.00,          0,     0.00,          0,     0.00,          0,     0.00
Line.UL632-633,    1.21579,    26.96,    1.21387,   -92.55,    1.21804,   147.30,          0,     0.00, 0.00583934,   -36.38,    1.21584,  -153.06,    1.21385,    87.43,    1.21803,   -32.72,          0,     0.00, 0.00584395,   143.84,          0,     0.00,          0,     0.00,          0,     0.00,          0,     0.00,          0,     0.00
Line.S671-692,    473.202,   116.94,    471.707,    -2.14,    474.506,  -122.38,          0,     0.00,    4.55258,    50.65,    473.202,   -63.06,    471.707,   177.86,    474.506,    57.62,          0,     0.00,    4.55258,  -129.35,          0,     0.00,          0,     0.00,          0,     0.00,          0,     0.00,          0,     0.00
Line.OL_652_A,    1.24514,    26.13,          0,     0.00,          0,     0.00,          0,     0.00,    1.24514,    26.13,    1.24514,  -153.87,          0,     0.00,          0,     0.00,          0,     0.00,    1.24514,  -153.87,          0,     0.00,          0,     0.00,          0,     0.00,          0,     0.00,          0,     0.00
Line.OL_611_C,    1.24869,   146.75,          0,     0.00,          0,     0.00,          0,     0.00,    1.24869,   146.75,    1.24869,   -33.25,          0,     0.00,          0,     0.00,          0,     0.00,    1.24869,   -33.25,          0,     0.00,          0,     0.00,          0,     0.00,          0,     0.00,          0,     0.00
Line.OL_684_A,    1.24515,    26.13,          0,     0.00,          0,     0.00,          0,     0.00,    1.24515,    26.13,    1.24515,  -153.87,          0,     0.00,          0,     0.00,          0,     0.00,    1.24515,  -153.87,          0,     0.00,          0,     0.00,          0,     0.00,          0,     0.00,          0,     0.00
Line.OL_684_C,    1.24869,   146.75,          0,     0.00,          0,     0.00,          0,     0.00,    1.24869,   146.75,     1.2487,   -33.25,          0,     0.00,          0,     0.00,          0,     0.00,     1.2487,   -33.25,          0,     0.00,          0,     0.00,          0,     0.00,          0,     0.00,          0,     0.00
Line.OL_645_B,    1.21383,   -92.56,          0,     0.00,          0,     0.00,          0,     0.00,    1.21383,   -92.56,    1.21383,    87.44,          0,     0.00,          0,     0.00,          0,     0.00,    1.21383,    87.44,          0,     0.00,          0,     0.00,          0,     0.00,          0,     0.00,          0,     0.00
Line.OL_645_C,    1.21803,   147.30,          0,     0.00,          0,     0.00,          0,     0.00,    1.21803,   147.30,    1.21803,   -32.71,          0,     0.00,          0,     0.00,          0,     0.00,    1.21803,   -32.71,          0,     0.00,          0,     0.00,          0,     0.00,          0,     0.00,          0,     0.00
Line.OL_633_A,    1.21584,    26.95,          0,     0.00,          0,     0.00,          0,     0.00,    1.21584,    26.95,    1.21584,  -153.05,          0,     0.00,          0,     0.00,          0,     0.00,    1.21584,  -153.05,          0,     0.00,          0,     0.00,          0,     0.00,          0,     0.00,          0,     0.00
Line.OL_633_B,    1.21385,   -92.56,          0,     0.00,          0,     0.00,          0,     0.00,    1.21385,   -92.56,    1.21385,    87.44,          0,     0.00,          0,     0.00,          0,     0.00,    1.21385,    87.44,          0,     0.00,          0,     0.00,          0,     0.00,          0,     0.00,          0,     0.00
Line.OL_633_C,    1.21802,   147.30,          0,     0.00,          0,     0.00,          0,     0.00,    1.21802,   147.30,    1.21802,   -32.71,          0,     0.00,          0,     0.00,          0,     0.00,    1.21802,   -32.71,          0,     0.00,          0,     0.00,          0,     0.00,          0,     0.00,          0,     0.00
Line.OL_632_A,    1.21585,    26.95,          0,     0.00,          0,     0.00,          0,     0.00,    1.21585,    26.95,    1.21585,  -153.05,          0,     0.00,          0,     0.00,          0,     0.00,    1.21585,  -153.05,          0,     0.00,          0,     0.00,          0,     0.00,          0,     0.00,          0,     0.00
Line.OL_632_B,    1.21385,   -92.55,          0,     0.00,          0,     0.00,          0,     0.00,    1.21385,   -92.55,    1.21386,    87.44,          0,     0.00,          0,     0.00,          0,     0.00,    1.21386,    87.44,          0,     0.00,          0,     0.00,          0,     0.00,          0,     0.00,          0,     0.00
Line.OL_632_C,    1.21803,   147.30,          0,     0.00,          0,     0.00,          0,     0.00,    1.21803,   147.30,    1.21803,   -32.70,          0,     0.00,          0,     0.00,          0,     0.00,    1.21803,   -32.70,          0,     0.00,          0,     0.00,          0,     0.00,          0,     0.00,          0,     0.00
Line.OL_692_A,     1.2452,    26.13,          0,     0.00,          0,     0.00,          0,     0.00,     1.2452,    26.13,     1.2452,  -153.87,          0,     0.00,          0,     0.00,          0,     0.00,     1.2452,  -153.87,          0,     0.00,          0,     0.00,          0,     0.00,          0,     0.00,          0,     0.00
Line.OL_692_B,    1.24128,   -93.03,          0,     0.00,          0,     0.00,          0,     0.00,    1.24128,   -93.03,    1.24128,    86.97,          0,     0.00,          0,     0.00,          0,     0.00,    1.24128,    86.97,          0,     0.00,          0,     0.00,          0,     0.00,          0,     0.00,          0,     0.00
Line.OL_692_C,    1.24877,   146.75,          0,     0.00,          0,     0.00,          0,     0.00,    1.24877,   146.75,    1.24877,   -33.25,          0,     0.00,          0,     0.00,          0,     0.00,    1.24877,   -33.25,          0,     0.00,          0,     0.00,          0,     0.00,          0,     0.00,          0,     0.00
Line.OL_675_A,    1.25262,    25.94,          0,     0.00,          0,     0.00,          0,     0.00,    1.25262,    25.94,    1.25262,  -154.06,          0,     0.00,          0,     0.00,          0,     0.00,    1.25262,  -154.06,          0,     0.00,          0,     0.00,          0,     0.00,          0,     0.00,          0,     0.00
Line.OL_675_B,    1.24815,   -93.14,          0,     0.00,          0,     0.00,          0,     0.00,    1.24815,   -93.14,    1.24815,    86.86,          0,     0.00,          0,     0.00,          0,     0.00,    1.24815,    86.86,          0,     0.00,          0,     0.00,          0,     0.00,          0,     0.00,          0,     0.00
Line.OL_675_C,    1.25654,   146.62,          0,     0.00,          0,     0.00,          0,     0.00,    1.25654,   146.62,    1.25654,   -33.38,          0,     0.00,          0,     0.00,          0,     0.00,    1.25654,   -33.38,          0,     0.00,          0,     0.00,          0,     0.00,          0,     0.00,          0,     0.00
Line.OL_671_A,    1.24515,    26.14,          0,     0.00,          0,     0.00,          0,     0.00,    1.24515,    26.14,    1.24516,  -153.87,          0,     0.00,          0,     0.00,          0,     0.00,    1.24516,  -153.87,          0,     0.00,          0,     0.00,          0,     0.00,          0,     0.00,          0,     0.00
Line.OL_671_B,    1.24124,   -93.02,          0,     0.00,          0,     0.00,          0,     0.00,    1.24124,   -93.02,    1.24124,    86.97,          0,     0.00,          0,     0.00,          0,     0.00,    1.24124,    86.97,          0,     0.00,          0,     0.00,          0,     0.00,          0,     0.00,          0,     0.00
Line.OL_671_C,    1.24872,   146.75,          0,     0.00,          0,     0.00,          0,     0.00,    1.24872,   146.75,    1.24872,   -33.25,          0,     0.00,          0,     0.00,          0,     0.00,    1.24872,   -33.25,          0,     0.00,          0,     0.00,          0,     0.00,          0,     0.00,          0,     0.00
Line.OL_680_A,    1.24512,    26.13,          0,     0.00,          0,     0.00,          0,     0.00,    1.24512,    26.13,    1.24512,  -153.87,          0,     0.00,          0,     0.00,          0,     0.00,    1.24512,  -153.87,          0,     0.00,          0,     0.00,          0,     0.00,          0,     0.00,          0,     0.00
Line.OL_680_B,    1.24122,   -93.03,          0,     0.00,          0,     0.00,          0,     0.00,    1.24122,   -93.03,    1.24122,    86.97,          0,     0.00,          0,     0.00,          0,     0.00,    1.24122,    86.97,          0,     0.00,          0,     0.00,          0,     0.00,          0,     0.00,          0,     0.00
Line.OL_680_C,   0.967917,   146.37,          0,     0.00,          0,     0.00,          0,     0.00,   0.967917,   146.37,   0.967918,   -33.63,          0,     0.00,          0,     0.00,          0,     0.00,   0.967918,   -33.63,          0,     0.00,          0,     0.00,          0,     0.00,          0,     0.00,          0,     0.00
Line.OL_652_A_XFMR_652_A_1,   0.249027,    26.13,          0,     0.00,          0,     0.00,          0,     0.00,   0.249027,    26.13,   0.249028,  -153.88,          0,     0.00,          0,     0.00,          0,     0.00,   0.249028,  -153.88,          0,     0.00,          0,     0.00,          0,     0.00,          0,     0.00,          0,     0.00
Line.TRIP_LINE_652_A_H_1,   0.311203,    27.44,   0.311203,  -152.56,          0,     0.00,          0,     0.00, 1.30506E-8,   -62.53,   0.311203,  -152.56,   0.311203,    27.44,          0,     0.00,          0,     0.00, 7.49989E-12,  -165.96,          0,     0.00,          0,     0.00,          0,     0.00,          0,     0.00,          0,     0.00
Line.TRIP_LINE_652_A_H_2,   0.311203,    27.44,   0.311203,  -152.56,          0,     0.00,          0,     0.00, 1.30489E-8,   -62.57,   0.311203,  -152.56,   0.311203,    27.44,          0,     0.00,          0,     0.00, 9.09495E-13,     0.00,          0,     0.00,          0,     0.00,          0,     0.00,          0,     0.00,          0,     0.00
Line.TRIP_LINE_652_A_H_3,   0.311203,    27.44,   0.311203,  -152.56,          0,     0.00,          0,     0.00, 1.30489E-8,   -62.57,   0.311203,  -152.56,   0.311203,    27.44,          0,     0.00,          0,     0.00, 9.09495E-13,     0.00,          0,     0.00,          0,     0.00,          0,     0.00,          0,     0.00,          0,     0.00
Line.TRIP_LINE_652_A_H_4,   0.311203,    27.44,   0.311203,  -152.56,          0,     0.00,          0,     0.00, 1.30489E-8,   -62.57,   0.311203,  -152.56,   0.311203,    27.44,          0,     0.00,          0,     0.00, 9.09495E-13,     0.00,          0,     0.00,          0,     0.00,          0,     0.00,          0,     0.00,          0,     0.00
Line.TRIP_LINE_652_A_H_5,   0.311203,    27.44,   0.311203,  -152.56,          0,     0.00,          0,     0.00, 1.30489E-8,   -62.57,   0.311203,  -152.56,   0.311203,    27.44,          0,     0.00,          0,     0.00, 9.09495E-13,     0.00,          0,     0.00,          0,     0.00,          0,     0.00,          0,     0.00,          0,     0.00
Line.TRIP_LINE_652_A_H_6,   0.311203,    27.44,   0.311203,  -152.56,          0,     0.00,          0,     0.00, 1.30489E-8,   -62.57,   0.311203,  -152.56,   0.311203,    27.44,          0,     0.00,          0,     0.00, 9.09495E-13,     0.00,          0,     0.00,          0,     0.00,          0,     0.00,          0,     0.00,          0,     0.00
Line.TRIP_LINE_652_A_H_7,   0.311203,    27.44,   0.311203,  -152.56,          0,     0.00,          0,     0.00, 1.30489E-8,   -62.57,   0.311203,  -152.56,   0.311203,    27.44,          0,     0.00,          0,     0.00, 9.09495E-13,     0.00,          0,     0.00,          0,     0.00,          0,     0.00,          0,     0.00,          0,     0.00
Line.TRIP_LINE_652_A_H_8,   0.311203,    27.44,   0.311203,  -152.56,          0,     0.00,          0,     0.00, 1.30489E-8,   -62.57,   0.311203,  -152.56,   0.311203,    27.44,          0,     0.00,          0,     0.00, 9.09495E-13,     0.00,          0,     0.00,          0,     0.00,          0,     0.00,          0,     0.00,          0,     0.00
Line.OL_652_A_XFMR_652_A_2,   0.249027,    26.13,          0,     0.00,          0,     0.00,          0,     0.00,   0.249027,    26.13,   0.249028,  -153.88,          0,     0.00,          0,     0.00,          0,     0.00,   0.249028,  -153.88,          0,     0.00,          0,     0.00,          0,     0.00,          0,     0.00,          0,     0.00
Line.TRIP_LINE_652_A_H_9,   0.311203,    27.44,   0.311203,  -152.56,          0,     0.00,          0,     0.00, 1.30514E-8,   -62.55,   0.311203,  -152.56,   0.311203,    27.44,          0,     0.00,          0,     0.00, 1.81899E-12,   -90.00,          0,     0.00,          0,     0.00,          0,     0.00,          0,     0.00,          0,     0.00
Line.TRIP_LINE_652_A_H_10,   0.311203,    27.44,   0.311203,  -152.56,          0,     0.00,          0,     0.00, 1.30554E-8,   -62.56,   0.311203,  -152.56,   0.311203,    27.44,          0,     0.00,          0,     0.00, 5.75215E-12,    71.57,          0,     0.00,          0,     0.00,          0,     0.00,          0,     0.00,          0,     0.00
Line.TRIP_LINE_652_A_H_11,   0.311203,    27.44,   0.311203,  -152.56,          0,     0.00,          0,     0.00, 1.30554E-8,   -62.56,   0.311203,  -152.56,   0.311203,    27.44,          0,     0.00,          0,     0.00, 5.75215E-12,    71.57,          0,     0.00,          0,     0.00,          0,     0.00,          0,     0.00,          0,     0.00
Line.TRIP_LINE_652_A_H_12,   0.311203,    27.44,   0.311203,  -152.56,          0,     0.00,          0,     0.00, 1.30554E-8,   -62.56,   0.311203,  -152.56,   0.311203,    27.44,          0,     0.00,          0,     0.00, 5.75215E-12,    71.57,          0,     0.00,          0,     0.00,          0,     0.00,          0,     0.00,          0,     0.00
Line.TRIP_LINE_652_A_H_13,   0.311203,    27.44,   0.311203,  -152.56,          0,     0.00,          0,     0.00, 1.30554E-8,   -62.56,   0.311203,  -152.56,   0.311203,    27.44,          0,     0.00,          0,     0.00, 5.75215E-12,    71.57,          0,     0.00,          0,     0.00,          0,     0.00,          0,     0.00,          0,     0.00
Line.TRIP_LINE_652_A_H_14,   0.311203,    27.44,   0.311203,  -152.56,          0,     0.00,          0,     0.00, 1.30554E-8,   -62.56,   0.311203,  -152.56,   0.311203,    27.44,          0,     0.00,          0,     0.00, 5.75215E-12,    71.57,          0,     0.00,          0,     0.00,          0,     0.00,          0,     0.00,          0,     0.00
Line.TRIP_LINE_652_A_H_15,   0.311203,    27.44,   0.311203,  -152.56,          0,     0.00,          0,     0.00, 1.30554E-8,   -62.56,   0.311203,  -152.56,   0.311203,    27.44,          0,     0.00,          0,     0.00, 5.75215E-12,    71.57,          0,     0.00,          0,     0.00,          0,     0.00,          0,     0.00,          0,     0.00
Line.TRIP_LINE_652_A_H_16,   0.311203,    27.44,   0.311203,  -152.56,          0,     0.00,          0,     0.00, 1.30554E-8,   -62.56,   0.311203,  -152.56,   0.311203,    27.44,          0,     0.00,          0,     0.00, 5.75215E-12,    71.57,          0,     0.00,          0,     0.00,          0,     0.00,          0,     0.00,          0,     0.00
