Bus, BasekV, Node1, Magnitude1, Angle1, pu1, Node2, Magnitude2, Angle2, pu2, Node3, Magnitude3, Angle3, pu3
"N650", 4.16, 1,       2402,   30.0,    1.0001, 2,       2402,  -90.0,    1.0001, 3,       2402,  150.0,    1.0001
"TRIP_LOAD_633_B_H_40", 0.208, 1,    80.2677,  -91.6,    0.6684, 2,    80.2677,   88.4,    0.6684, 0, 0, 0, 0
"TRIP_LOAD_645_B_H_5", 0.208, 1,    80.2649,  -91.6,   0.66838, 2,    80.2649,   88.4,   0.66838, 0, 0, 0, 0
"TRIP_LOAD_645_C_H_15", 0.208, 1,    80.4498,  148.1,   0.66992, 2,    80.4498,  -31.9,   0.66992, 0, 0, 0, 0
"TRIP_LOAD_671_C_H_40", 0.208, 1,    82.1856,  147.5,   0.68437, 2,    82.1855,  -32.5,   0.68437, 0, 0, 0, 0
"TRIP_LOAD_645_B_H_4", 0.208, 1,    80.2649,  -91.6,   0.66838, 2,    80.2649,   88.4,   0.66838, 0, 0, 0, 0
"TRIP_LOAD_645_C_H_14", 0.208, 1,    80.4498,  148.1,   0.66992, 2,    80.4498,  -31.9,   0.66992, 0, 0, 0, 0
"TRIP_LOAD_645_B_H_7", 0.208, 1,    80.2649,  -91.6,   0.66838, 2,    80.2649,   88.4,   0.66838, 0, 0, 0, 0
"TRIP_LOAD_645_C_H_13", 0.208, 1,    80.4498,  148.1,   0.66992, 2,    80.4498,  -31.9,   0.66992, 0, 0, 0, 0
"TRIP_LOAD_645_B_H_6", 0.208, 1,    80.2649,  -91.6,   0.66838, 2,    80.2649,   88.4,   0.66838, 0, 0, 0, 0
"TRIP_LOAD_645_C_H_12", 0.208, 1,    80.4498,  148.1,   0.66992, 2,    80.4498,  -31.9,   0.66992, 0, 0, 0, 0
"TRIP_LOAD_645_B_H_9", 0.208, 1,    80.2649,  -91.6,   0.66838, 2,    80.2649,   88.4,   0.66838, 0, 0, 0, 0
"TRIP_LOAD_645_C_H_11", 0.208, 1,    80.4498,  148.1,   0.66992, 2,    80.4498,  -31.9,   0.66992, 0, 0, 0, 0
"TRIP_LOAD_645_B_H_8", 0.208, 1,    80.2649,  -91.6,   0.66838, 2,    80.2649,   88.4,   0.66838, 0, 0, 0, 0
"TRIP_LOAD_645_C_H_10", 0.208, 1,    80.4498,  148.1,   0.66992, 2,    80.4498,  -31.9,   0.66992, 0, 0, 0, 0
"TRIP_LOAD_684_C_H_9", 0.208, 1,    82.1804,  147.5,   0.68433, 2,    82.1804,  -32.5,   0.68433, 0, 0, 0, 0
"TRIP_LOAD_684_C_H_8", 0.208, 1,    82.1804,  147.5,   0.68433, 2,    82.1804,  -32.5,   0.68433, 0, 0, 0, 0
"TRIP_LOAD_645_C_H_19", 0.208, 1,    80.4498,  148.1,   0.66992, 2,    80.4498,  -31.9,   0.66992, 0, 0, 0, 0
"TRIP_LOAD_645_C_H_18", 0.208, 1,    80.4498,  148.1,   0.66992, 2,    80.4498,  -31.9,   0.66992, 0, 0, 0, 0
"TRIP_LOAD_645_C_H_17", 0.208, 1,    80.4498,  148.1,   0.66992, 2,    80.4498,  -31.9,   0.66992, 0, 0, 0, 0
"TRIP_LOAD_645_C_H_16", 0.208, 1,    80.4498,  148.1,   0.66992, 2,    80.4498,  -31.9,   0.66992, 0, 0, 0, 0
"TRIP_LOAD_633_B_H_35", 0.208, 1,    80.2677,  -91.6,    0.6684, 2,    80.2677,   88.4,    0.6684, 0, 0, 0, 0
"TRIP_LOAD_633_B_H_34", 0.208, 1,    80.2677,  -91.6,    0.6684, 2,    80.2677,   88.4,    0.6684, 0, 0, 0, 0
"TRIP_LOAD_633_B_H_33", 0.208, 1,    80.2677,  -91.6,    0.6684, 2,    80.2677,   88.4,    0.6684, 0, 0, 0, 0
"TRIP_LOAD_633_B_H_32", 0.208, 1,    80.2677,  -91.6,    0.6684, 2,    80.2677,   88.4,    0.6684, 0, 0, 0, 0
"TRIP_LOAD_633_B_H_31", 0.208, 1,    80.2677,  -91.6,    0.6684, 2,    80.2677,   88.4,    0.6684, 0, 0, 0, 0
"TRIP_LOAD_633_B_H_30", 0.208, 1,    80.2677,  -91.6,    0.6684, 2,    80.2677,   88.4,    0.6684, 0, 0, 0, 0
"TRIP_LOAD_684_C_H_7", 0.208, 1,    82.1804,  147.5,   0.68433, 2,    82.1804,  -32.5,   0.68433, 0, 0, 0, 0
"TRIP_LOAD_684_C_H_6", 0.208, 1,    82.1804,  147.5,   0.68433, 2,    82.1804,  -32.5,   0.68433, 0, 0, 0, 0
"TRIP_LOAD_684_C_H_5", 0.208, 1,    82.1804,  147.5,   0.68433, 2,    82.1804,  -32.5,   0.68433, 0, 0, 0, 0
"TRIP_LOAD_684_C_H_4", 0.208, 1,    82.1804,  147.5,   0.68433, 2,    82.1804,  -32.5,   0.68433, 0, 0, 0, 0
"TRIP_LOAD_633_B_H_39", 0.208, 1,    80.2677,  -91.6,    0.6684, 2,    80.2677,   88.4,    0.6684, 0, 0, 0, 0
"TRIP_LOAD_645_B_H_1", 0.208, 1,    80.2649,  -91.6,   0.66838, 2,    80.2649,   88.4,   0.66838, 0, 0, 0, 0
"TRIP_LOAD_684_C_H_3", 0.208, 1,    82.1804,  147.5,   0.68433, 2,    82.1804,  -32.5,   0.68433, 0, 0, 0, 0
"TRIP_LOAD_633_B_H_38", 0.208, 1,    80.2677,  -91.6,    0.6684, 2,    80.2677,   88.4,    0.6684, 0, 0, 0, 0
"TRIP_LOAD_684_C_H_2", 0.208, 1,    82.1804,  147.5,   0.68433, 2,    82.1804,  -32.5,   0.68433, 0, 0, 0, 0
"TRIP_LOAD_633_B_H_37", 0.208, 1,    80.2677,  -91.6,    0.6684, 2,    80.2677,   88.4,    0.6684, 0, 0, 0, 0
"TRIP_LOAD_645_B_H_3", 0.208, 1,    80.2649,  -91.6,   0.66838, 2,    80.2649,   88.4,   0.66838, 0, 0, 0, 0
"TRIP_LOAD_684_C_H_1", 0.208, 1,    82.1804,  147.5,   0.68433, 2,    82.1804,  -32.5,   0.68433, 0, 0, 0, 0
"TRIP_LOAD_633_B_H_36", 0.208, 1,    80.2677,  -91.6,    0.6684, 2,    80.2677,   88.4,    0.6684, 0, 0, 0, 0
"TRIP_LOAD_645_B_H_2", 0.208, 1,    80.2649,  -91.6,   0.66838, 2,    80.2649,   88.4,   0.66838, 0, 0, 0, 0
"TRIP_LOAD_645_C_H_26", 0.208, 1,    80.4498,  148.1,   0.66992, 2,    80.4498,  -31.9,   0.66992, 0, 0, 0, 0
"TRIP_LOAD_645_C_H_25", 0.208, 1,    80.4498,  148.1,   0.66992, 2,    80.4498,  -31.9,   0.66992, 0, 0, 0, 0
"TRIP_LOAD_671_C_H_30", 0.208, 1,    82.1856,  147.5,   0.68437, 2,    82.1855,  -32.5,   0.68437, 0, 0, 0, 0
"TRIP_LOAD_645_C_H_24", 0.208, 1,    80.4498,  148.1,   0.66992, 2,    80.4498,  -31.9,   0.66992, 0, 0, 0, 0
"TRIP_LOAD_645_C_H_23", 0.208, 1,    80.4498,  148.1,   0.66992, 2,    80.4498,  -31.9,   0.66992, 0, 0, 0, 0
"TRIP_LOAD_645_C_H_22", 0.208, 1,    80.4498,  148.1,   0.66992, 2,    80.4498,  -31.9,   0.66992, 0, 0, 0, 0
"TRIP_LOAD_645_C_H_21", 0.208, 1,    80.4498,  148.1,   0.66992, 2,    80.4498,  -31.9,   0.66992, 0, 0, 0, 0
"TRIP_LOAD_645_C_H_20", 0.208, 1,    80.4498,  148.1,   0.66992, 2,    80.4498,  -31.9,   0.66992, 0, 0, 0, 0
"TRIP_LOAD_671_C_H_37", 0.208, 1,    82.1856,  147.5,   0.68437, 2,    82.1855,  -32.5,   0.68437, 0, 0, 0, 0
"TRIP_LOAD_671_C_H_38", 0.208, 1,    82.1856,  147.5,   0.68437, 2,    82.1855,  -32.5,   0.68437, 0, 0, 0, 0
"TRIP_LOAD_671_C_H_35", 0.208, 1,    82.1856,  147.5,   0.68437, 2,    82.1855,  -32.5,   0.68437, 0, 0, 0, 0
"TRIP_LOAD_671_C_H_36", 0.208, 1,    82.1856,  147.5,   0.68437, 2,    82.1855,  -32.5,   0.68437, 0, 0, 0, 0
"TRIP_LOAD_671_C_H_33", 0.208, 1,    82.1856,  147.5,   0.68437, 2,    82.1855,  -32.5,   0.68437, 0, 0, 0, 0
"TRIP_LOAD_645_C_H_29", 0.208, 1,    80.4498,  148.1,   0.66992, 2,    80.4498,  -31.9,   0.66992, 0, 0, 0, 0
"TRIP_LOAD_671_C_H_34", 0.208, 1,    82.1856,  147.5,   0.68437, 2,    82.1855,  -32.5,   0.68437, 0, 0, 0, 0
"TRIP_LOAD_645_C_H_28", 0.208, 1,    80.4498,  148.1,   0.66992, 2,    80.4498,  -31.9,   0.66992, 0, 0, 0, 0
"TRIP_LOAD_671_C_H_31", 0.208, 1,    82.1856,  147.5,   0.68437, 2,    82.1855,  -32.5,   0.68437, 0, 0, 0, 0
"TRIP_LOAD_645_C_H_27", 0.208, 1,    80.4498,  148.1,   0.66992, 2,    80.4498,  -31.9,   0.66992, 0, 0, 0, 0
"TRIP_LOAD_671_C_H_32", 0.208, 1,    82.1856,  147.5,   0.68437, 2,    82.1855,  -32.5,   0.68437, 0, 0, 0, 0
"TRIP_LOAD_671_C_H_39", 0.208, 1,    82.1856,  147.5,   0.68437, 2,    82.1855,  -32.5,   0.68437, 0, 0, 0, 0
"TRIP_LOAD_645_C_H_37", 0.208, 1,    80.4498,  148.1,   0.66992, 2,    80.4498,  -31.9,   0.66992, 0, 0, 0, 0
"TRIP_LOAD_645_C_H_36", 0.208, 1,    80.4498,  148.1,   0.66992, 2,    80.4498,  -31.9,   0.66992, 0, 0, 0, 0
"TRIP_LOAD_645_C_H_35", 0.208, 1,    80.4498,  148.1,   0.66992, 2,    80.4498,  -31.9,   0.66992, 0, 0, 0, 0
"TRIP_LOAD_645_C_H_34", 0.208, 1,    80.4498,  148.1,   0.66992, 2,    80.4498,  -31.9,   0.66992, 0, 0, 0, 0
"TRIP_LOAD_692_A_H_9", 0.208, 1,    82.0274,   26.9,   0.68306, 2,    82.0274, -153.1,   0.68306, 0, 0, 0, 0
"TRIP_LOAD_645_C_H_33", 0.208, 1,    80.4498,  148.1,   0.66992, 2,    80.4498,  -31.9,   0.66992, 0, 0, 0, 0
"TRIP_LOAD_692_A_H_8", 0.208, 1,    82.0274,   26.9,   0.68306, 2,    82.0274, -153.1,   0.68306, 0, 0, 0, 0
"TRIP_LOAD_645_C_H_32", 0.208, 1,    80.4498,  148.1,   0.66992, 2,    80.4498,  -31.9,   0.66992, 0, 0, 0, 0
"TRIP_LOAD_692_A_H_7", 0.208, 1,    82.0274,   26.9,   0.68306, 2,    82.0274, -153.1,   0.68306, 0, 0, 0, 0
"TRIP_LOAD_645_C_H_31", 0.208, 1,    80.4498,  148.1,   0.66992, 2,    80.4498,  -31.9,   0.66992, 0, 0, 0, 0
"TRIP_LOAD_692_A_H_6", 0.208, 1,    82.0274,   26.9,   0.68306, 2,    82.0274, -153.1,   0.68306, 0, 0, 0, 0
"TRIP_LOAD_645_C_H_30", 0.208, 1,    80.4498,  148.1,   0.66992, 2,    80.4498,  -31.9,   0.66992, 0, 0, 0, 0
"TRIP_LOAD_692_A_H_5", 0.208, 1,    82.0274,   26.9,   0.68306, 2,    82.0274, -153.1,   0.68306, 0, 0, 0, 0
"TRIP_LOAD_671_C_H_26", 0.208, 1,    82.1856,  147.5,   0.68437, 2,    82.1855,  -32.5,   0.68437, 0, 0, 0, 0
"TRIP_LOAD_692_A_H_4", 0.208, 1,    82.0274,   26.9,   0.68306, 2,    82.0274, -153.1,   0.68306, 0, 0, 0, 0
"TRIP_LOAD_671_C_H_27", 0.208, 1,    82.1856,  147.5,   0.68437, 2,    82.1855,  -32.5,   0.68437, 0, 0, 0, 0
"TRIP_LOAD_692_A_H_3", 0.208, 1,    82.0274,   26.9,   0.68306, 2,    82.0274, -153.1,   0.68306, 0, 0, 0, 0
"TRIP_LOAD_671_C_H_24", 0.208, 1,    82.1856,  147.5,   0.68437, 2,    82.1855,  -32.5,   0.68437, 0, 0, 0, 0
"TRIP_LOAD_692_A_H_2", 0.208, 1,    82.0274,   26.9,   0.68306, 2,    82.0274, -153.1,   0.68306, 0, 0, 0, 0
"TRIP_LOAD_671_C_H_25", 0.208, 1,    82.1856,  147.5,   0.68437, 2,    82.1855,  -32.5,   0.68437, 0, 0, 0, 0
"TRIP_LOAD_692_A_H_1", 0.208, 1,    82.0274,   26.9,   0.68306, 2,    82.0274, -153.1,   0.68306, 0, 0, 0, 0
"TRIP_LOAD_671_C_H_22", 0.208, 1,    82.1856,  147.5,   0.68437, 2,    82.1855,  -32.5,   0.68437, 0, 0, 0, 0
"TRIP_LOAD_671_C_H_23", 0.208, 1,    82.1856,  147.5,   0.68437, 2,    82.1855,  -32.5,   0.68437, 0, 0, 0, 0
"TRIP_LOAD_645_C_H_39", 0.208, 1,    80.4498,  148.1,   0.66992, 2,    80.4498,  -31.9,   0.66992, 0, 0, 0, 0
"TRIP_LOAD_671_C_H_20", 0.208, 1,    82.1856,  147.5,   0.68437, 2,    82.1855,  -32.5,   0.68437, 0, 0, 0, 0
"TRIP_LOAD_645_C_H_38", 0.208, 1,    80.4498,  148.1,   0.66992, 2,    80.4498,  -31.9,   0.66992, 0, 0, 0, 0
"TRIP_LOAD_671_C_H_21", 0.208, 1,    82.1856,  147.5,   0.68437, 2,    82.1855,  -32.5,   0.68437, 0, 0, 0, 0
"TRIP_LOAD_671_C_H_28", 0.208, 1,    82.1856,  147.5,   0.68437, 2,    82.1855,  -32.5,   0.68437, 0, 0, 0, 0
"TRIP_LOAD_671_C_H_29", 0.208, 1,    82.1856,  147.5,   0.68437, 2,    82.1855,  -32.5,   0.68437, 0, 0, 0, 0
"TRIP_LOAD_645_C_H_40", 0.208, 1,    80.4498,  148.1,   0.66992, 2,    80.4498,  -31.9,   0.66992, 0, 0, 0, 0
"TRIP_LOAD_671_C_H_15", 0.208, 1,    82.1856,  147.5,   0.68437, 2,    82.1855,  -32.5,   0.68437, 0, 0, 0, 0
"TRIP_LOAD_671_C_H_16", 0.208, 1,    82.1856,  147.5,   0.68437, 2,    82.1855,  -32.5,   0.68437, 0, 0, 0, 0
"TRIP_LOAD_671_C_H_13", 0.208, 1,    82.1856,  147.5,   0.68437, 2,    82.1855,  -32.5,   0.68437, 0, 0, 0, 0
"TRIP_LOAD_671_C_H_14", 0.208, 1,    82.1856,  147.5,   0.68437, 2,    82.1855,  -32.5,   0.68437, 0, 0, 0, 0
"TRIP_LOAD_671_C_H_11", 0.208, 1,    82.1856,  147.5,   0.68437, 2,    82.1855,  -32.5,   0.68437, 0, 0, 0, 0
"TRIP_LOAD_671_C_H_12", 0.208, 1,    82.1856,  147.5,   0.68437, 2,    82.1855,  -32.5,   0.68437, 0, 0, 0, 0
"TRIP_LOAD_671_C_H_10", 0.208, 1,    82.1856,  147.5,   0.68437, 2,    82.1855,  -32.5,   0.68437, 0, 0, 0, 0
"TRIP_LOAD_671_C_H_19", 0.208, 1,    82.1856,  147.5,   0.68437, 2,    82.1855,  -32.5,   0.68437, 0, 0, 0, 0
"TRIP_LOAD_671_C_H_17", 0.208, 1,    82.1856,  147.5,   0.68437, 2,    82.1855,  -32.5,   0.68437, 0, 0, 0, 0
"TRIP_LOAD_671_C_H_18", 0.208, 1,    82.1856,  147.5,   0.68437, 2,    82.1855,  -32.5,   0.68437, 0, 0, 0, 0
"TRIP_LOAD_632_B_H_11", 0.208, 1,    80.2691,  -91.6,   0.66841, 2,    80.2691,   88.4,   0.66841, 0, 0, 0, 0
"TRIP_LOAD_632_B_H_12", 0.208, 1,    80.2691,  -91.6,   0.66841, 2,    80.2691,   88.4,   0.66841, 0, 0, 0, 0
"TRIP_LOAD_632_B_H_10", 0.208, 1,    80.2691,  -91.6,   0.66841, 2,    80.2691,   88.4,   0.66841, 0, 0, 0, 0
"TRIP_LOAD_632_B_H_15", 0.208, 1,    80.2691,  -91.6,   0.66841, 2,    80.2691,   88.4,   0.66841, 0, 0, 0, 0
"TRIP_LOAD_632_B_H_16", 0.208, 1,    80.2691,  -91.6,   0.66841, 2,    80.2691,   88.4,   0.66841, 0, 0, 0, 0
"TRIP_LOAD_632_B_H_13", 0.208, 1,    80.2691,  -91.6,   0.66841, 2,    80.2691,   88.4,   0.66841, 0, 0, 0, 0
"TRIP_LOAD_632_B_H_14", 0.208, 1,    80.2691,  -91.6,   0.66841, 2,    80.2691,   88.4,   0.66841, 0, 0, 0, 0
"TRIP_LOAD_632_B_H_19", 0.208, 1,    80.2691,  -91.6,   0.66841, 2,    80.2691,   88.4,   0.66841, 0, 0, 0, 0
"TRIP_LOAD_632_B_H_17", 0.208, 1,    80.2691,  -91.6,   0.66841, 2,    80.2691,   88.4,   0.66841, 0, 0, 0, 0
"TRIP_LOAD_632_B_H_18", 0.208, 1,    80.2691,  -91.6,   0.66841, 2,    80.2691,   88.4,   0.66841, 0, 0, 0, 0
"TRIP_LOAD_632_B_H_22", 0.208, 1,    80.2691,  -91.6,   0.66841, 2,    80.2691,   88.4,   0.66841, 0, 0, 0, 0
"TRIP_LOAD_632_B_H_23", 0.208, 1,    80.2691,  -91.6,   0.66841, 2,    80.2691,   88.4,   0.66841, 0, 0, 0, 0
"TRIP_LOAD_632_B_H_20", 0.208, 1,    80.2691,  -91.6,   0.66841, 2,    80.2691,   88.4,   0.66841, 0, 0, 0, 0
"TRIP_LOAD_632_B_H_21", 0.208, 1,    80.2691,  -91.6,   0.66841, 2,    80.2691,   88.4,   0.66841, 0, 0, 0, 0
"TRIP_LOAD_632_B_H_26", 0.208, 1,    80.2691,  -91.6,   0.66841, 2,    80.2691,   88.4,   0.66841, 0, 0, 0, 0
"TRIP_LOAD_632_B_H_27", 0.208, 1,    80.2691,  -91.6,   0.66841, 2,    80.2691,   88.4,   0.66841, 0, 0, 0, 0
"TRIP_LOAD_632_B_H_24", 0.208, 1,    80.2691,  -91.6,   0.66841, 2,    80.2691,   88.4,   0.66841, 0, 0, 0, 0
"TRIP_LOAD_632_B_H_25", 0.208, 1,    80.2691,  -91.6,   0.66841, 2,    80.2691,   88.4,   0.66841, 0, 0, 0, 0
"TRIP_LOAD_632_B_H_28", 0.208, 1,    80.2691,  -91.6,   0.66841, 2,    80.2691,   88.4,   0.66841, 0, 0, 0, 0
"TRIP_LOAD_632_B_H_29", 0.208, 1,    80.2691,  -91.6,   0.66841, 2,    80.2691,   88.4,   0.66841, 0, 0, 0, 0
"TRIP_LOAD_633_B_H_24", 0.208, 1,    80.2677,  -91.6,    0.6684, 2,    80.2677,   88.4,    0.6684, 0, 0, 0, 0
"TRIP_LOAD_633_B_H_23", 0.208, 1,    80.2677,  -91.6,    0.6684, 2,    80.2677,   88.4,    0.6684, 0, 0, 0, 0
"TRIP_LOAD_633_B_H_22", 0.208, 1,    80.2677,  -91.6,    0.6684, 2,    80.2677,   88.4,    0.6684, 0, 0, 0, 0
"TRIP_LOAD_633_B_H_21", 0.208, 1,    80.2677,  -91.6,    0.6684, 2,    80.2677,   88.4,    0.6684, 0, 0, 0, 0
"TRIP_LOAD_633_B_H_20", 0.208, 1,    80.2677,  -91.6,    0.6684, 2,    80.2677,   88.4,    0.6684, 0, 0, 0, 0
"TRIP_LOAD_633_B_H_29", 0.208, 1,    80.2677,  -91.6,    0.6684, 2,    80.2677,   88.4,    0.6684, 0, 0, 0, 0
"TRIP_LOAD_633_B_H_28", 0.208, 1,    80.2677,  -91.6,    0.6684, 2,    80.2677,   88.4,    0.6684, 0, 0, 0, 0
"TRIP_LOAD_633_B_H_27", 0.208, 1,    80.2677,  -91.6,    0.6684, 2,    80.2677,   88.4,    0.6684, 0, 0, 0, 0
"TRIP_LOAD_633_B_H_26", 0.208, 1,    80.2677,  -91.6,    0.6684, 2,    80.2677,   88.4,    0.6684, 0, 0, 0, 0
"TRIP_LOAD_633_B_H_25", 0.208, 1,    80.2677,  -91.6,    0.6684, 2,    80.2677,   88.4,    0.6684, 0, 0, 0, 0
"TRIP_LOAD_675_C_H_6", 0.208, 1,    82.6374,  147.3,   0.68814, 2,    82.6373,  -32.7,   0.68814, 0, 0, 0, 0
"TRIP_LOAD_632_B_H_30", 0.208, 1,    80.2691,  -91.6,   0.66841, 2,    80.2691,   88.4,   0.66841, 0, 0, 0, 0
"TRIP_LOAD_675_C_H_7", 0.208, 1,    82.6374,  147.3,   0.68814, 2,    82.6373,  -32.7,   0.68814, 0, 0, 0, 0
"TRIP_LOAD_692_C_H_9", 0.208, 1,    82.1885,  147.5,    0.6844, 2,    82.1885,  -32.5,    0.6844, 0, 0, 0, 0
"TRIP_LOAD_675_C_H_8", 0.208, 1,    82.6374,  147.3,   0.68814, 2,    82.6373,  -32.7,   0.68814, 0, 0, 0, 0
"TRIP_LOAD_692_C_H_8", 0.208, 1,    82.1885,  147.5,    0.6844, 2,    82.1885,  -32.5,    0.6844, 0, 0, 0, 0
"TRIP_LOAD_675_C_H_9", 0.208, 1,    82.6374,  147.3,   0.68814, 2,    82.6373,  -32.7,   0.68814, 0, 0, 0, 0
"TRIP_LOAD_692_C_H_7", 0.208, 1,    82.1885,  147.5,    0.6844, 2,    82.1885,  -32.5,    0.6844, 0, 0, 0, 0
"TRIP_LOAD_632_B_H_33", 0.208, 1,    80.2691,  -91.6,   0.66841, 2,    80.2691,   88.4,   0.66841, 0, 0, 0, 0
"TRIP_LOAD_692_C_H_6", 0.208, 1,    82.1885,  147.5,    0.6844, 2,    82.1885,  -32.5,    0.6844, 0, 0, 0, 0
"TRIP_LOAD_632_B_H_34", 0.208, 1,    80.2691,  -91.6,   0.66841, 2,    80.2691,   88.4,   0.66841, 0, 0, 0, 0
"TRIP_LOAD_692_C_H_5", 0.208, 1,    82.1885,  147.5,    0.6844, 2,    82.1885,  -32.5,    0.6844, 0, 0, 0, 0
"TRIP_LOAD_632_B_H_31", 0.208, 1,    80.2691,  -91.6,   0.66841, 2,    80.2691,   88.4,   0.66841, 0, 0, 0, 0
"TRIP_LOAD_692_C_H_4", 0.208, 1,    82.1885,  147.5,    0.6844, 2,    82.1885,  -32.5,    0.6844, 0, 0, 0, 0
"TRIP_LOAD_632_B_H_32", 0.208, 1,    80.2691,  -91.6,   0.66841, 2,    80.2691,   88.4,   0.66841, 0, 0, 0, 0
"TRIP_LOAD_692_C_H_3", 0.208, 1,    82.1885,  147.5,    0.6844, 2,    82.1885,  -32.5,    0.6844, 0, 0, 0, 0
"TRIP_LOAD_632_B_H_37", 0.208, 1,    80.2691,  -91.6,   0.66841, 2,    80.2691,   88.4,   0.66841, 0, 0, 0, 0
"TRIP_LOAD_692_C_H_2", 0.208, 1,    82.1885,  147.5,    0.6844, 2,    82.1885,  -32.5,    0.6844, 0, 0, 0, 0
"TRIP_LOAD_632_B_H_38", 0.208, 1,    80.2691,  -91.6,   0.66841, 2,    80.2691,   88.4,   0.66841, 0, 0, 0, 0
"TRIP_LOAD_692_C_H_1", 0.208, 1,    82.1885,  147.5,    0.6844, 2,    82.1885,  -32.5,    0.6844, 0, 0, 0, 0
"TRIP_LOAD_632_B_H_35", 0.208, 1,    80.2691,  -91.6,   0.66841, 2,    80.2691,   88.4,   0.66841, 0, 0, 0, 0
"TRIP_LOAD_632_B_H_36", 0.208, 1,    80.2691,  -91.6,   0.66841, 2,    80.2691,   88.4,   0.66841, 0, 0, 0, 0
"TRIP_LOAD_632_B_H_39", 0.208, 1,    80.2691,  -91.6,   0.66841, 2,    80.2691,   88.4,   0.66841, 0, 0, 0, 0
"TRIP_LOAD_671_A_H_40", 0.208, 1,    82.0246,   26.9,   0.68303, 2,    82.0246, -153.1,   0.68303, 0, 0, 0, 0
"TRIP_LOAD_633_B_H_13", 0.208, 1,    80.2677,  -91.6,    0.6684, 2,    80.2677,   88.4,    0.6684, 0, 0, 0, 0
"TRIP_LOAD_633_B_H_12", 0.208, 1,    80.2677,  -91.6,    0.6684, 2,    80.2677,   88.4,    0.6684, 0, 0, 0, 0
"TRIP_LOAD_633_B_H_11", 0.208, 1,    80.2677,  -91.6,    0.6684, 2,    80.2677,   88.4,    0.6684, 0, 0, 0, 0
"TRIP_LOAD_633_B_H_10", 0.208, 1,    80.2677,  -91.6,    0.6684, 2,    80.2677,   88.4,    0.6684, 0, 0, 0, 0
"TRIP_LOAD_633_B_H_19", 0.208, 1,    80.2677,  -91.6,    0.6684, 2,    80.2677,   88.4,    0.6684, 0, 0, 0, 0
"TRIP_LOAD_633_B_H_18", 0.208, 1,    80.2677,  -91.6,    0.6684, 2,    80.2677,   88.4,    0.6684, 0, 0, 0, 0
"TRIP_LOAD_675_C_H_1", 0.208, 1,    82.6374,  147.3,   0.68814, 2,    82.6373,  -32.7,   0.68814, 0, 0, 0, 0
"TRIP_LOAD_633_B_H_17", 0.208, 1,    80.2677,  -91.6,    0.6684, 2,    80.2677,   88.4,    0.6684, 0, 0, 0, 0
"TRIP_LOAD_675_C_H_2", 0.208, 1,    82.6374,  147.3,   0.68814, 2,    82.6373,  -32.7,   0.68814, 0, 0, 0, 0
"TRIP_LOAD_633_B_H_16", 0.208, 1,    80.2677,  -91.6,    0.6684, 2,    80.2677,   88.4,    0.6684, 0, 0, 0, 0
"TRIP_LOAD_675_C_H_3", 0.208, 1,    82.6374,  147.3,   0.68814, 2,    82.6373,  -32.7,   0.68814, 0, 0, 0, 0
"TRIP_LOAD_633_B_H_15", 0.208, 1,    80.2677,  -91.6,    0.6684, 2,    80.2677,   88.4,    0.6684, 0, 0, 0, 0
"TRIP_LOAD_675_C_H_4", 0.208, 1,    82.6374,  147.3,   0.68814, 2,    82.6373,  -32.7,   0.68814, 0, 0, 0, 0
"TRIP_LOAD_633_B_H_14", 0.208, 1,    80.2677,  -91.6,    0.6684, 2,    80.2677,   88.4,    0.6684, 0, 0, 0, 0
"TRIP_LOAD_675_C_H_5", 0.208, 1,    82.6374,  147.3,   0.68814, 2,    82.6373,  -32.7,   0.68814, 0, 0, 0, 0
"TRIP_LOAD_632_B_H_40", 0.208, 1,    80.2691,  -91.6,   0.66841, 2,    80.2691,   88.4,   0.66841, 0, 0, 0, 0
"TRIP_LOAD_671_A_H_35", 0.208, 1,    82.0246,   26.9,   0.68303, 2,    82.0246, -153.1,   0.68303, 0, 0, 0, 0
"TRIP_LOAD_680_C_H_15", 0.208, 1,    82.1823,  147.5,   0.68435, 2,    82.1823,  -32.5,   0.68435, 0, 0, 0, 0
"TRIP_LOAD_692_B_H_36", 0.208, 1,     81.858,  -92.1,   0.68165, 2,     81.858,   87.9,   0.68165, 0, 0, 0, 0
"TRIP_LOAD_671_A_H_36", 0.208, 1,    82.0246,   26.9,   0.68303, 2,    82.0246, -153.1,   0.68303, 0, 0, 0, 0
"TRIP_LOAD_680_C_H_16", 0.208, 1,    82.1823,  147.5,   0.68435, 2,    82.1823,  -32.5,   0.68435, 0, 0, 0, 0
"TRIP_LOAD_692_B_H_35", 0.208, 1,     81.858,  -92.1,   0.68165, 2,     81.858,   87.9,   0.68165, 0, 0, 0, 0
"TRIP_LOAD_671_A_H_33", 0.208, 1,    82.0246,   26.9,   0.68303, 2,    82.0246, -153.1,   0.68303, 0, 0, 0, 0
"TRIP_LOAD_680_C_H_17", 0.208, 1,    82.1823,  147.5,   0.68435, 2,    82.1823,  -32.5,   0.68435, 0, 0, 0, 0
"TRIP_LOAD_692_B_H_34", 0.208, 1,     81.858,  -92.1,   0.68165, 2,     81.858,   87.9,   0.68165, 0, 0, 0, 0
"TRIP_LOAD_671_A_H_34", 0.208, 1,    82.0246,   26.9,   0.68303, 2,    82.0246, -153.1,   0.68303, 0, 0, 0, 0
