Element, I1_1, Ang1_1, I1_2, Ang1_2, I1_3, Ang1_3, I1_4, Ang1_4, Iresid1, AngResid1, I2_1, Ang2_1, I2_2, Ang2_2, I2_3, Ang2_3, I2_4, Ang2_4, Iresid2, AngResid2, I3_1, Ang3_1, I3_2, Ang3_2, I3_3, Ang3_3, I3_4, Ang3_4, Iresid3, AngResid3
Vsource.SOURCE,    273.211,   -67.27,    272.365,   174.29,    273.949,    52.87,          0,     0.00,    6.50473,   -90.66,    273.211,   112.73,    272.365,    -5.71,    273.949,  -127.13,          0,     0.00,    6.50473,    89.34,          0,     0.00,          0,     0.00,          0,     0.00,          0,     0.00,          0,     0.00
Line.OL_632_B_XFMR_632_B_2,    0.80898,   -92.02,          0,     0.00,          0,     0.00,          0,     0.00,    0.80898,   -92.02,    0.80898,    87.98,          0,     0.00,          0,     0.00,          0,     0.00,    0.80898,    87.98,          0,     0.00,          0,     0.00,          0,     0.00,          0,     0.00,          0,     0.00
Line.OL_632_B_XFMR_632_B_3,    0.80898,   -92.02,          0,     0.00,          0,     0.00,          0,     0.00,    0.80898,   -92.02,    0.80898,    87.98,          0,     0.00,          0,     0.00,          0,     0.00,    0.80898,    87.98,          0,     0.00,          0,     0.00,          0,     0.00,          0,     0.00,          0,     0.00
Line.OL_632_B_XFMR_632_B_4,    0.80898,   -92.02,          0,     0.00,          0,     0.00,          0,     0.00,    0.80898,   -92.02,    0.80898,    87.98,          0,     0.00,          0,     0.00,          0,     0.00,    0.80898,    87.98,          0,     0.00,          0,     0.00,          0,     0.00,          0,     0.00,          0,     0.00
Line.OL_632_B_XFMR_632_B_5,    0.80898,   -92.02,          0,     0.00,          0,     0.00,          0,     0.00,    0.80898,   -92.02,    0.80898,    87.98,          0,     0.00,          0,     0.00,          0,     0.00,    0.80898,    87.98,          0,     0.00,          0,     0.00,          0,     0.00,          0,     0.00,          0,     0.00
Line.OL_632_B_XFMR_632_B_1,    0.80898,   -92.02,          0,     0.00,          0,     0.00,          0,     0.00,    0.80898,   -92.02,    0.80898,    87.98,          0,     0.00,          0,     0.00,          0,     0.00,    0.80898,    87.98,          0,     0.00,          0,     0.00,          0,     0.00,          0,     0.00,          0,     0.00
Line.TRIP_LINE_645_B_H_5,    1.01115,   -91.63,    1.01115,    88.37,          0,     0.00,          0,     0.00, 1.27599E-8,   178.37,    1.01115,    88.37,    1.01115,   -91.63,          0,     0.00,          0,     0.00, 9.10631E-12,    -2.86,          0,     0.00,          0,     0.00,          0,     0.00,          0,     0.00,          0,     0.00
Line.TRIP_LINE_645_B_H_6,    1.01115,   -91.63,    1.01115,    88.37,          0,     0.00,          0,     0.00, 1.27599E-8,   178.37,    1.01115,    88.37,    1.01115,   -91.63,          0,     0.00,          0,     0.00, 9.10631E-12,    -2.86,          0,     0.00,          0,     0.00,          0,     0.00,          0,     0.00,          0,     0.00
Line.TRIP_LINE_645_B_H_7,    1.01115,   -91.63,    1.01115,    88.37,          0,     0.00,          0,     0.00, 1.27599E-8,   178.37,    1.01115,    88.37,    1.01115,   -91.63,          0,     0.00,          0,     0.00, 9.10631E-12,    -2.86,          0,     0.00,          0,     0.00,          0,     0.00,          0,     0.00,          0,     0.00
Line.TRIP_LINE_645_B_H_8,    1.01115,   -91.63,    1.01115,    88.37,          0,     0.00,          0,     0.00, 1.27599E-8,   178.37,    1.01115,    88.37,    1.01115,   -91.63,          0,     0.00,          0,     0.00, 9.10631E-12,    -2.86,          0,     0.00,          0,     0.00,          0,     0.00,          0,     0.00,          0,     0.00
Line.TRIP_LINE_645_B_H_9,    1.01115,   -91.63,    1.01115,    88.37,          0,     0.00,          0,     0.00, 1.27599E-8,   178.38,    1.01115,    88.37,    1.01115,   -91.63,          0,     0.00,          0,     0.00, 9.09495E-12,     0.00,          0,     0.00,          0,     0.00,          0,     0.00,          0,     0.00,          0,     0.00
Line.TRIP_LINE_645_B_H_1,    1.01115,   -91.63,    1.01115,    88.37,          0,     0.00,          0,     0.00, 1.27599E-8,   178.37,    1.01115,    88.37,    1.01115,   -91.63,          0,     0.00,          0,     0.00, 9.10631E-12,    -2.86,          0,     0.00,          0,     0.00,          0,     0.00,          0,     0.00,          0,     0.00
Line.TRIP_LINE_645_B_H_2,    1.01115,   -91.63,    1.01115,    88.37,          0,     0.00,          0,     0.00, 1.27599E-8,   178.37,    1.01115,    88.37,    1.01115,   -91.63,          0,     0.00,          0,     0.00, 9.10631E-12,    -2.86,          0,     0.00,          0,     0.00,          0,     0.00,          0,     0.00,          0,     0.00
Line.TRIP_LINE_645_B_H_3,    1.01115,   -91.63,    1.01115,    88.37,          0,     0.00,          0,     0.00, 1.27599E-8,   178.37,    1.01115,    88.37,    1.01115,   -91.63,          0,     0.00,          0,     0.00, 9.10631E-12,    -2.86,          0,     0.00,          0,     0.00,          0,     0.00,          0,     0.00,          0,     0.00
Line.TRIP_LINE_645_B_H_4,    1.01115,   -91.63,    1.01115,    88.37,          0,     0.00,          0,     0.00, 1.27599E-8,   178.37,    1.01115,    88.37,    1.01115,   -91.63,          0,     0.00,          0,     0.00, 9.10631E-12,    -2.86,          0,     0.00,          0,     0.00,          0,     0.00,          0,     0.00,          0,     0.00
Line.OL_684_C_XFMR_684_C_5,   0.828242,   147.07,          0,     0.00,          0,     0.00,          0,     0.00,   0.828242,   147.07,   0.828242,   -32.93,          0,     0.00,          0,     0.00,          0,     0.00,   0.828242,   -32.93,          0,     0.00,          0,     0.00,          0,     0.00,          0,     0.00,          0,     0.00
Line.OL_684_C_XFMR_684_C_4,   0.828242,   147.07,          0,     0.00,          0,     0.00,          0,     0.00,   0.828242,   147.07,   0.828242,   -32.93,          0,     0.00,          0,     0.00,          0,     0.00,   0.828242,   -32.93,          0,     0.00,          0,     0.00,          0,     0.00,          0,     0.00,          0,     0.00
Line.OL_684_C_XFMR_684_C_3,   0.828242,   147.07,          0,     0.00,          0,     0.00,          0,     0.00,   0.828242,   147.07,   0.828242,   -32.93,          0,     0.00,          0,     0.00,          0,     0.00,   0.828242,   -32.93,          0,     0.00,          0,     0.00,          0,     0.00,          0,     0.00,          0,     0.00
Line.OL_684_C_XFMR_684_C_2,   0.828242,   147.07,          0,     0.00,          0,     0.00,          0,     0.00,   0.828242,   147.07,   0.828242,   -32.93,          0,     0.00,          0,     0.00,          0,     0.00,   0.828242,   -32.93,          0,     0.00,          0,     0.00,          0,     0.00,          0,     0.00,          0,     0.00
Line.OL_684_C_XFMR_684_C_1,   0.828242,   147.07,          0,     0.00,          0,     0.00,          0,     0.00,   0.828242,   147.07,   0.828242,   -32.93,          0,     0.00,          0,     0.00,          0,     0.00,   0.828242,   -32.93,          0,     0.00,          0,     0.00,          0,     0.00,          0,     0.00,          0,     0.00
Line.OL_675_C_XFMR_675_C_1,   0.832848,   146.95,          0,     0.00,          0,     0.00,          0,     0.00,   0.832848,   146.95,   0.832848,   -33.06,          0,     0.00,          0,     0.00,          0,     0.00,   0.832848,   -33.06,          0,     0.00,          0,     0.00,          0,     0.00,          0,     0.00,          0,     0.00
Line.TRIP_LINE_692_C_H_40,    1.03538,   147.47,    1.03538,   -32.53,          0,     0.00,          0,     0.00, 1.30548E-8,    57.49,    1.03538,   -32.53,    1.03538,   147.47,          0,     0.00,          0,     0.00, 1.87497E-12,    75.96,          0,     0.00,          0,     0.00,          0,     0.00,          0,     0.00,          0,     0.00
Line.OL_675_C_XFMR_675_C_2,   0.832848,   146.95,          0,     0.00,          0,     0.00,          0,     0.00,   0.832848,   146.95,   0.832848,   -33.06,          0,     0.00,          0,     0.00,          0,     0.00,   0.832848,   -33.06,          0,     0.00,          0,     0.00,          0,     0.00,          0,     0.00,          0,     0.00
Line.OL_675_C_XFMR_675_C_3,   0.832848,   146.95,          0,     0.00,          0,     0.00,          0,     0.00,   0.832848,   146.95,   0.832848,   -33.06,          0,     0.00,          0,     0.00,          0,     0.00,   0.832848,   -33.06,          0,     0.00,          0,     0.00,          0,     0.00,          0,     0.00,          0,     0.00
Line.OL_675_C_XFMR_675_C_4,   0.832848,   146.95,          0,     0.00,          0,     0.00,          0,     0.00,   0.832848,   146.95,   0.832848,   -33.06,          0,     0.00,          0,     0.00,          0,     0.00,   0.832848,   -33.06,          0,     0.00,          0,     0.00,          0,     0.00,          0,     0.00,          0,     0.00
Line.OL_675_C_XFMR_675_C_5,   0.832848,   146.95,          0,     0.00,          0,     0.00,          0,     0.00,   0.832848,   146.95,   0.832848,   -33.06,          0,     0.00,          0,     0.00,          0,     0.00,   0.832848,   -33.06,          0,     0.00,          0,     0.00,          0,     0.00,          0,     0.00,          0,     0.00
Line.OL_671_C,    4.14147,   147.08,          0,     0.00,          0,     0.00,          0,     0.00,    4.14147,   147.08,    4.14147,   -32.92,          0,     0.00,          0,     0.00,          0,     0.00,    4.14147,   -32.92,          0,     0.00,          0,     0.00,          0,     0.00,          0,     0.00,          0,     0.00
Line.OL_671_A,    4.13336,    26.52,          0,     0.00,          0,     0.00,          0,     0.00,    4.13336,    26.52,    4.13336,  -153.48,          0,     0.00,          0,     0.00,          0,     0.00,    4.13336,  -153.48,          0,     0.00,          0,     0.00,          0,     0.00,          0,     0.00,          0,     0.00
Line.OL_671_B,    4.12484,   -92.51,          0,     0.00,          0,     0.00,          0,     0.00,    4.12484,   -92.51,    4.12484,    87.49,          0,     0.00,          0,     0.00,          0,     0.00,    4.12484,    87.49,          0,     0.00,          0,     0.00,          0,     0.00,          0,     0.00,          0,     0.00
Line.TRIP_LINE_632_A_H_6,    1.01219,    27.79,    1.01219,  -152.21,          0,     0.00,          0,     0.00, 1.27603E-8,   -62.19,    1.01219,  -152.21,    1.01219,    27.79,          0,     0.00,          0,     0.00, 4.54747E-12,  -126.87,          0,     0.00,          0,     0.00,          0,     0.00,          0,     0.00,          0,     0.00
Line.TRIP_LINE_632_A_H_7,    1.01219,    27.79,    1.01219,  -152.21,          0,     0.00,          0,     0.00, 1.27603E-8,   -62.19,    1.01219,  -152.21,    1.01219,    27.79,          0,     0.00,          0,     0.00, 4.54747E-12,  -126.87,          0,     0.00,          0,     0.00,          0,     0.00,          0,     0.00,          0,     0.00
Line.TRIP_LINE_632_A_H_4,    1.01219,    27.79,    1.01219,  -152.21,          0,     0.00,          0,     0.00, 1.27603E-8,   -62.19,    1.01219,  -152.21,    1.01219,    27.79,          0,     0.00,          0,     0.00, 4.54747E-12,  -126.87,          0,     0.00,          0,     0.00,          0,     0.00,          0,     0.00,          0,     0.00
Line.TRIP_LINE_632_A_H_5,    1.01219,    27.79,    1.01219,  -152.21,          0,     0.00,          0,     0.00, 1.27603E-8,   -62.19,    1.01219,  -152.21,    1.01219,    27.79,          0,     0.00,          0,     0.00, 4.54747E-12,  -126.87,          0,     0.00,          0,     0.00,          0,     0.00,          0,     0.00,          0,     0.00
Line.TRIP_LINE_632_A_H_2,    1.01219,    27.79,    1.01219,  -152.21,          0,     0.00,          0,     0.00, 1.27603E-8,   -62.19,    1.01219,  -152.21,    1.01219,    27.79,          0,     0.00,          0,     0.00, 4.54747E-12,  -126.87,          0,     0.00,          0,     0.00,          0,     0.00,          0,     0.00,          0,     0.00
Line.TRIP_LINE_632_A_H_3,    1.01219,    27.79,    1.01219,  -152.21,          0,     0.00,          0,     0.00, 1.27603E-8,   -62.19,    1.01219,  -152.21,    1.01219,    27.79,          0,     0.00,          0,     0.00, 4.54747E-12,  -126.87,          0,     0.00,          0,     0.00,          0,     0.00,          0,     0.00,          0,     0.00
Line.TRIP_LINE_632_A_H_1,    1.01219,    27.79,    1.01219,  -152.21,          0,     0.00,          0,     0.00, 1.27603E-8,   -62.19,    1.01219,  -152.21,    1.01219,    27.79,          0,     0.00,          0,     0.00, 4.54747E-12,  -126.87,          0,     0.00,          0,     0.00,          0,     0.00,          0,     0.00,          0,     0.00
Line.TRIP_LINE_632_A_H_8,    1.01219,    27.79,    1.01219,  -152.21,          0,     0.00,          0,     0.00, 1.27603E-8,   -62.19,    1.01219,  -152.21,    1.01219,    27.79,          0,     0.00,          0,     0.00, 4.54747E-12,  -126.87,          0,     0.00,          0,     0.00,          0,     0.00,          0,     0.00,          0,     0.00
Line.TRIP_LINE_632_A_H_9,    1.01219,    27.79,    1.01219,  -152.21,          0,     0.00,          0,     0.00, 1.27568E-8,   -62.17,    1.01219,  -152.21,    1.01219,    27.79,          0,     0.00,          0,     0.00, 1.81899E-12,     0.00,          0,     0.00,          0,     0.00,          0,     0.00,          0,     0.00,          0,     0.00
Line.TRIP_LINE_671_A_H_40,    1.03332,    26.91,    1.03332,  -153.09,          0,     0.00,          0,     0.00, 1.30272E-8,   -63.09,    1.03332,  -153.09,    1.03332,    26.91,          0,     0.00,          0,     0.00, 2.03369E-12,   153.43,          0,     0.00,          0,     0.00,          0,     0.00,          0,     0.00,          0,     0.00
Line.TRIP_LINE_692_B_H_12,    1.03122,   -92.11,    1.03122,    87.89,          0,     0.00,          0,     0.00, 1.29928E-8,   177.89,    1.03122,    87.89,    1.03122,   -92.11,          0,     0.00,          0,     0.00, 9.4954E-12,   163.30,          0,     0.00,          0,     0.00,          0,     0.00,          0,     0.00,          0,     0.00
Line.TRIP_LINE_692_B_H_13,    1.03122,   -92.11,    1.03122,    87.89,          0,     0.00,          0,     0.00, 1.29928E-8,   177.89,    1.03122,    87.89,    1.03122,   -92.11,          0,     0.00,          0,     0.00, 9.4954E-12,   163.30,          0,     0.00,          0,     0.00,          0,     0.00,          0,     0.00,          0,     0.00
Line.TRIP_LINE_692_B_H_10,    1.03122,   -92.11,    1.03122,    87.89,          0,     0.00,          0,     0.00, 1.29928E-8,   177.89,    1.03122,    87.89,    1.03122,   -92.11,          0,     0.00,          0,     0.00, 9.4954E-12,   163.30,          0,     0.00,          0,     0.00,          0,     0.00,          0,     0.00,          0,     0.00
Line.TRIP_LINE_692_B_H_11,    1.03122,   -92.11,    1.03122,    87.89,          0,     0.00,          0,     0.00, 1.29928E-8,   177.89,    1.03122,    87.89,    1.03122,   -92.11,          0,     0.00,          0,     0.00, 9.4954E-12,   163.30,          0,     0.00,          0,     0.00,          0,     0.00,          0,     0.00,          0,     0.00
Line.TRIP_LINE_692_B_H_16,    1.03122,   -92.11,    1.03122,    87.89,          0,     0.00,          0,     0.00, 1.29928E-8,   177.89,    1.03122,    87.89,    1.03122,   -92.11,          0,     0.00,          0,     0.00, 9.4954E-12,   163.30,          0,     0.00,          0,     0.00,          0,     0.00,          0,     0.00,          0,     0.00
Line.TRIP_LINE_692_B_H_17,    1.03122,   -92.11,    1.03122,    87.89,          0,     0.00,          0,     0.00, 1.29928E-8,   177.89,    1.03122,    87.89,    1.03122,   -92.11,          0,     0.00,          0,     0.00, 9.4954E-12,   163.30,          0,     0.00,          0,     0.00,          0,     0.00,          0,     0.00,          0,     0.00
Line.TRIP_LINE_692_B_H_14,    1.03122,   -92.11,    1.03122,    87.89,          0,     0.00,          0,     0.00, 1.29928E-8,   177.89,    1.03122,    87.89,    1.03122,   -92.11,          0,     0.00,          0,     0.00, 9.4954E-12,   163.30,          0,     0.00,          0,     0.00,          0,     0.00,          0,     0.00,          0,     0.00
Line.TRIP_LINE_692_B_H_15,    1.03122,   -92.11,    1.03122,    87.89,          0,     0.00,          0,     0.00, 1.29928E-8,   177.89,    1.03122,    87.89,    1.03122,   -92.11,          0,     0.00,          0,     0.00, 9.4954E-12,   163.30,          0,     0.00,          0,     0.00,          0,     0.00,          0,     0.00,          0,     0.00
Line.TRIP_LINE_692_B_H_18,    1.03122,   -92.11,    1.03122,    87.89,          0,     0.00,          0,     0.00, 1.29928E-8,   177.89,    1.03122,    87.89,    1.03122,   -92.11,          0,     0.00,          0,     0.00, 9.4954E-12,   163.30,          0,     0.00,          0,     0.00,          0,     0.00,          0,     0.00,          0,     0.00
Line.TRIP_LINE_692_B_H_19,    1.03122,   -92.11,    1.03122,    87.89,          0,     0.00,          0,     0.00, 1.29928E-8,   177.89,    1.03122,    87.89,    1.03122,   -92.11,          0,     0.00,          0,     0.00, 9.4954E-12,   163.30,          0,     0.00,          0,     0.00,          0,     0.00,          0,     0.00,          0,     0.00
Line.TRIP_LINE_692_C_H_25,    1.03538,   147.47,    1.03538,   -32.53,          0,     0.00,          0,     0.00, 1.30548E-8,    57.49,    1.03538,   -32.53,    1.03538,   147.47,          0,     0.00,          0,     0.00, 1.87497E-12,    75.96,          0,     0.00,          0,     0.00,          0,     0.00,          0,     0.00,          0,     0.00
Line.TRIP_LINE_692_C_H_24,    1.03538,   147.47,    1.03538,   -32.53,          0,     0.00,          0,     0.00, 1.30548E-8,    57.49,    1.03538,   -32.53,    1.03538,   147.47,          0,     0.00,          0,     0.00, 1.87497E-12,    75.96,          0,     0.00,          0,     0.00,          0,     0.00,          0,     0.00,          0,     0.00
Line.TRIP_LINE_692_C_H_23,    1.03538,   147.47,    1.03538,   -32.53,          0,     0.00,          0,     0.00, 1.30548E-8,    57.49,    1.03538,   -32.53,    1.03538,   147.47,          0,     0.00,          0,     0.00, 1.87497E-12,    75.96,          0,     0.00,          0,     0.00,          0,     0.00,          0,     0.00,          0,     0.00
Line.TRIP_LINE_692_C_H_22,    1.03538,   147.47,    1.03538,   -32.53,          0,     0.00,          0,     0.00, 1.30548E-8,    57.49,    1.03538,   -32.53,    1.03538,   147.47,          0,     0.00,          0,     0.00, 1.87497E-12,    75.96,          0,     0.00,          0,     0.00,          0,     0.00,          0,     0.00,          0,     0.00
Line.TRIP_LINE_692_C_H_21,    1.03538,   147.47,    1.03538,   -32.53,          0,     0.00,          0,     0.00, 1.30548E-8,    57.49,    1.03538,   -32.53,    1.03538,   147.47,          0,     0.00,          0,     0.00, 1.87497E-12,    75.96,          0,     0.00,          0,     0.00,          0,     0.00,          0,     0.00,          0,     0.00
Line.TRIP_LINE_692_C_H_20,    1.03538,   147.47,    1.03538,   -32.53,          0,     0.00,          0,     0.00, 1.30548E-8,    57.49,    1.03538,   -32.53,    1.03538,   147.47,          0,     0.00,          0,     0.00, 1.87497E-12,    75.96,          0,     0.00,          0,     0.00,          0,     0.00,          0,     0.00,          0,     0.00
