Bus, BasekV, Node1, Magnitude1, Angle1, pu1, Node2, Magnitude2, Angle2, pu2, Node3, Magnitude3, Angle3, pu3
"N650", 4.16, 1,    2402.01,   30.0,    1.0001, 2,    2402.02,  -90.0,    1.0001, 3,    2402.01,  150.0,    1.0001
"TRIP_LOAD_633_B_H_40", 0.12, 1,    90.1572,  -94.7,    1.3013, 2,    90.1571,   85.3,    1.3013, 0, 0, 0, 0
"TRIP_LOAD_645_B_H_5", 0.12, 1,    90.1409,  -94.7,    1.3011, 2,    90.1408,   85.3,    1.3011, 0, 0, 0, 0
"TRIP_LOAD_645_C_H_15", 0.12, 1,      89.76,  143.9,    1.2956, 2,    89.7599,  -36.1,    1.2956, 0, 0, 0, 0
"TRIP_LOAD_671_C_H_40", 0.12, 1,    91.3687,  143.1,    1.3188, 2,    91.3686,  -36.9,    1.3188, 0, 0, 0, 0
"TRIP_LOAD_645_B_H_4", 0.12, 1,    90.1409,  -94.7,    1.3011, 2,    90.1408,   85.3,    1.3011, 0, 0, 0, 0
"TRIP_LOAD_645_C_H_14", 0.12, 1,      89.76,  143.9,    1.2956, 2,    89.7599,  -36.1,    1.2956, 0, 0, 0, 0
"TRIP_LOAD_645_B_H_7", 0.12, 1,    90.1409,  -94.7,    1.3011, 2,    90.1408,   85.3,    1.3011, 0, 0, 0, 0
"TRIP_LOAD_645_C_H_13", 0.12, 1,      89.76,  143.9,    1.2956, 2,    89.7599,  -36.1,    1.2956, 0, 0, 0, 0
"TRIP_LOAD_645_B_H_6", 0.12, 1,    90.1409,  -94.7,    1.3011, 2,    90.1408,   85.3,    1.3011, 0, 0, 0, 0
"TRIP_LOAD_645_C_H_12", 0.12, 1,      89.76,  143.9,    1.2956, 2,    89.7599,  -36.1,    1.2956, 0, 0, 0, 0
"TRIP_LOAD_645_B_H_9", 0.12, 1,    90.1409,  -94.7,    1.3011, 2,    90.1408,   85.3,    1.3011, 0, 0, 0, 0
"TRIP_LOAD_645_C_H_11", 0.12, 1,      89.76,  143.9,    1.2956, 2,    89.7599,  -36.1,    1.2956, 0, 0, 0, 0
"TRIP_LOAD_645_B_H_8", 0.12, 1,    90.1409,  -94.7,    1.3011, 2,    90.1408,   85.3,    1.3011, 0, 0, 0, 0
"TRIP_LOAD_645_C_H_10", 0.12, 1,      89.76,  143.9,    1.2956, 2,    89.7599,  -36.1,    1.2956, 0, 0, 0, 0
"TRIP_LOAD_684_C_H_9", 0.12, 1,    91.3386,  143.1,    1.3184, 2,    91.3385,  -36.9,    1.3184, 0, 0, 0, 0
"TRIP_LOAD_684_C_H_8", 0.12, 1,    91.3386,  143.1,    1.3184, 2,    91.3385,  -36.9,    1.3184, 0, 0, 0, 0
"TRIP_LOAD_645_C_H_19", 0.12, 1,      89.76,  143.9,    1.2956, 2,    89.7599,  -36.1,    1.2956, 0, 0, 0, 0
"TRIP_LOAD_645_C_H_18", 0.12, 1,      89.76,  143.9,    1.2956, 2,    89.7599,  -36.1,    1.2956, 0, 0, 0, 0
"TRIP_LOAD_645_C_H_17", 0.12, 1,      89.76,  143.9,    1.2956, 2,    89.7599,  -36.1,    1.2956, 0, 0, 0, 0
"TRIP_LOAD_645_C_H_16", 0.12, 1,      89.76,  143.9,    1.2956, 2,    89.7599,  -36.1,    1.2956, 0, 0, 0, 0
"TRIP_LOAD_633_B_H_35", 0.12, 1,    90.1572,  -94.7,    1.3013, 2,    90.1571,   85.3,    1.3013, 0, 0, 0, 0
"TRIP_LOAD_633_B_H_34", 0.12, 1,    90.1572,  -94.7,    1.3013, 2,    90.1571,   85.3,    1.3013, 0, 0, 0, 0
"TRIP_LOAD_633_B_H_33", 0.12, 1,    90.1572,  -94.7,    1.3013, 2,    90.1571,   85.3,    1.3013, 0, 0, 0, 0
"TRIP_LOAD_633_B_H_32", 0.12, 1,    90.1572,  -94.7,    1.3013, 2,    90.1571,   85.3,    1.3013, 0, 0, 0, 0
"TRIP_LOAD_633_B_H_31", 0.12, 1,    90.1572,  -94.7,    1.3013, 2,    90.1571,   85.3,    1.3013, 0, 0, 0, 0
"TRIP_LOAD_633_B_H_30", 0.12, 1,    90.1572,  -94.7,    1.3013, 2,    90.1571,   85.3,    1.3013, 0, 0, 0, 0
"TRIP_LOAD_684_C_H_7", 0.12, 1,    91.3386,  143.1,    1.3184, 2,    91.3385,  -36.9,    1.3184, 0, 0, 0, 0
"TRIP_LOAD_684_C_H_6", 0.12, 1,    91.3386,  143.1,    1.3184, 2,    91.3385,  -36.9,    1.3184, 0, 0, 0, 0
"TRIP_LOAD_684_C_H_5", 0.12, 1,    91.3386,  143.1,    1.3184, 2,    91.3385,  -36.9,    1.3184, 0, 0, 0, 0
"TRIP_LOAD_684_C_H_4", 0.12, 1,    91.3386,  143.1,    1.3184, 2,    91.3385,  -36.9,    1.3184, 0, 0, 0, 0
"TRIP_LOAD_633_B_H_39", 0.12, 1,    90.1572,  -94.7,    1.3013, 2,    90.1571,   85.3,    1.3013, 0, 0, 0, 0
"TRIP_LOAD_645_B_H_1", 0.12, 1,    90.1409,  -94.7,    1.3011, 2,    90.1408,   85.3,    1.3011, 0, 0, 0, 0
"TRIP_LOAD_684_C_H_3", 0.12, 1,    91.3386,  143.1,    1.3184, 2,    91.3385,  -36.9,    1.3184, 0, 0, 0, 0
"TRIP_LOAD_633_B_H_38", 0.12, 1,    90.1572,  -94.7,    1.3013, 2,    90.1571,   85.3,    1.3013, 0, 0, 0, 0
"TRIP_LOAD_684_C_H_2", 0.12, 1,    91.3386,  143.1,    1.3184, 2,    91.3385,  -36.9,    1.3184, 0, 0, 0, 0
"TRIP_LOAD_633_B_H_37", 0.12, 1,    90.1572,  -94.7,    1.3013, 2,    90.1571,   85.3,    1.3013, 0, 0, 0, 0
"TRIP_LOAD_645_B_H_3", 0.12, 1,    90.1409,  -94.7,    1.3011, 2,    90.1408,   85.3,    1.3011, 0, 0, 0, 0
"TRIP_LOAD_684_C_H_1", 0.12, 1,    91.3386,  143.1,    1.3184, 2,    91.3385,  -36.9,    1.3184, 0, 0, 0, 0
"TRIP_LOAD_633_B_H_36", 0.12, 1,    90.1572,  -94.7,    1.3013, 2,    90.1571,   85.3,    1.3013, 0, 0, 0, 0
"TRIP_LOAD_645_B_H_2", 0.12, 1,    90.1409,  -94.7,    1.3011, 2,    90.1408,   85.3,    1.3011, 0, 0, 0, 0
"TRIP_LOAD_645_C_H_26", 0.12, 1,      89.76,  143.9,    1.2956, 2,    89.7599,  -36.1,    1.2956, 0, 0, 0, 0
"TRIP_LOAD_645_C_H_25", 0.12, 1,      89.76,  143.9,    1.2956, 2,    89.7599,  -36.1,    1.2956, 0, 0, 0, 0
"TRIP_LOAD_671_C_H_30", 0.12, 1,    91.3687,  143.1,    1.3188, 2,    91.3686,  -36.9,    1.3188, 0, 0, 0, 0
"TRIP_LOAD_645_C_H_24", 0.12, 1,      89.76,  143.9,    1.2956, 2,    89.7599,  -36.1,    1.2956, 0, 0, 0, 0
"TRIP_LOAD_645_C_H_23", 0.12, 1,      89.76,  143.9,    1.2956, 2,    89.7599,  -36.1,    1.2956, 0, 0, 0, 0
"TRIP_LOAD_645_C_H_22", 0.12, 1,      89.76,  143.9,    1.2956, 2,    89.7599,  -36.1,    1.2956, 0, 0, 0, 0
"TRIP_LOAD_645_C_H_21", 0.12, 1,      89.76,  143.9,    1.2956, 2,    89.7599,  -36.1,    1.2956, 0, 0, 0, 0
"TRIP_LOAD_645_C_H_20", 0.12, 1,      89.76,  143.9,    1.2956, 2,    89.7599,  -36.1,    1.2956, 0, 0, 0, 0
"TRIP_LOAD_671_C_H_37", 0.12, 1,    91.3687,  143.1,    1.3188, 2,    91.3686,  -36.9,    1.3188, 0, 0, 0, 0
"TRIP_LOAD_671_C_H_38", 0.12, 1,    91.3687,  143.1,    1.3188, 2,    91.3686,  -36.9,    1.3188, 0, 0, 0, 0
"TRIP_LOAD_671_C_H_35", 0.12, 1,    91.3687,  143.1,    1.3188, 2,    91.3686,  -36.9,    1.3188, 0, 0, 0, 0
"TRIP_LOAD_671_C_H_36", 0.12, 1,    91.3687,  143.1,    1.3188, 2,    91.3686,  -36.9,    1.3188, 0, 0, 0, 0
"TRIP_LOAD_671_C_H_33", 0.12, 1,    91.3687,  143.1,    1.3188, 2,    91.3686,  -36.9,    1.3188, 0, 0, 0, 0
"TRIP_LOAD_645_C_H_29", 0.12, 1,      89.76,  143.9,    1.2956, 2,    89.7599,  -36.1,    1.2956, 0, 0, 0, 0
"TRIP_LOAD_671_C_H_34", 0.12, 1,    91.3687,  143.1,    1.3188, 2,    91.3686,  -36.9,    1.3188, 0, 0, 0, 0
"TRIP_LOAD_645_C_H_28", 0.12, 1,      89.76,  143.9,    1.2956, 2,    89.7599,  -36.1,    1.2956, 0, 0, 0, 0
"TRIP_LOAD_671_C_H_31", 0.12, 1,    91.3687,  143.1,    1.3188, 2,    91.3686,  -36.9,    1.3188, 0, 0, 0, 0
"TRIP_LOAD_645_C_H_27", 0.12, 1,      89.76,  143.9,    1.2956, 2,    89.7599,  -36.1,    1.2956, 0, 0, 0, 0
"TRIP_LOAD_671_C_H_32", 0.12, 1,    91.3687,  143.1,    1.3188, 2,    91.3686,  -36.9,    1.3188, 0, 0, 0, 0
"TRIP_LOAD_671_C_H_39", 0.12, 1,    91.3687,  143.1,    1.3188, 2,    91.3686,  -36.9,    1.3188, 0, 0, 0, 0
"TRIP_LOAD_645_C_H_37", 0.12, 1,      89.76,  143.9,    1.2956, 2,    89.7599,  -36.1,    1.2956, 0, 0, 0, 0
"TRIP_LOAD_645_C_H_36", 0.12, 1,      89.76,  143.9,    1.2956, 2,    89.7599,  -36.1,    1.2956, 0, 0, 0, 0
"TRIP_LOAD_645_C_H_35", 0.12, 1,      89.76,  143.9,    1.2956, 2,    89.7599,  -36.1,    1.2956, 0, 0, 0, 0
"TRIP_LOAD_645_C_H_34", 0.12, 1,      89.76,  143.9,    1.2956, 2,    89.7599,  -36.1,    1.2956, 0, 0, 0, 0
"TRIP_LOAD_692_A_H_9", 0.12, 1,    91.5022,   22.8,    1.3207, 2,    91.5021, -157.2,    1.3207, 0, 0, 0, 0
"TRIP_LOAD_645_C_H_33", 0.12, 1,      89.76,  143.9,    1.2956, 2,    89.7599,  -36.1,    1.2956, 0, 0, 0, 0
"TRIP_LOAD_692_A_H_8", 0.12, 1,    91.5022,   22.8,    1.3207, 2,    91.5021, -157.2,    1.3207, 0, 0, 0, 0
"TRIP_LOAD_645_C_H_32", 0.12, 1,      89.76,  143.9,    1.2956, 2,    89.7599,  -36.1,    1.2956, 0, 0, 0, 0
"TRIP_LOAD_692_A_H_7", 0.12, 1,    91.5022,   22.8,    1.3207, 2,    91.5021, -157.2,    1.3207, 0, 0, 0, 0
"TRIP_LOAD_645_C_H_31", 0.12, 1,      89.76,  143.9,    1.2956, 2,    89.7599,  -36.1,    1.2956, 0, 0, 0, 0
"TRIP_LOAD_692_A_H_6", 0.12, 1,    91.5022,   22.8,    1.3207, 2,    91.5021, -157.2,    1.3207, 0, 0, 0, 0
"TRIP_LOAD_645_C_H_30", 0.12, 1,      89.76,  143.9,    1.2956, 2,    89.7599,  -36.1,    1.2956, 0, 0, 0, 0
"TRIP_LOAD_692_A_H_5", 0.12, 1,    91.5022,   22.8,    1.3207, 2,    91.5021, -157.2,    1.3207, 0, 0, 0, 0
"TRIP_LOAD_671_C_H_26", 0.12, 1,    91.3687,  143.1,    1.3188, 2,    91.3686,  -36.9,    1.3188, 0, 0, 0, 0
"TRIP_LOAD_692_A_H_4", 0.12, 1,    91.5022,   22.8,    1.3207, 2,    91.5021, -157.2,    1.3207, 0, 0, 0, 0
"TRIP_LOAD_671_C_H_27", 0.12, 1,    91.3687,  143.1,    1.3188, 2,    91.3686,  -36.9,    1.3188, 0, 0, 0, 0
"TRIP_LOAD_692_A_H_3", 0.12, 1,    91.5022,   22.8,    1.3207, 2,    91.5021, -157.2,    1.3207, 0, 0, 0, 0
"TRIP_LOAD_671_C_H_24", 0.12, 1,    91.3687,  143.1,    1.3188, 2,    91.3686,  -36.9,    1.3188, 0, 0, 0, 0
"TRIP_LOAD_692_A_H_2", 0.12, 1,    91.5022,   22.8,    1.3207, 2,    91.5021, -157.2,    1.3207, 0, 0, 0, 0
"TRIP_LOAD_671_C_H_25", 0.12, 1,    91.3687,  143.1,    1.3188, 2,    91.3686,  -36.9,    1.3188, 0, 0, 0, 0
"TRIP_LOAD_692_A_H_1", 0.12, 1,    91.5022,   22.8,    1.3207, 2,    91.5021, -157.2,    1.3207, 0, 0, 0, 0
"TRIP_LOAD_671_C_H_22", 0.12, 1,    91.3687,  143.1,    1.3188, 2,    91.3686,  -36.9,    1.3188, 0, 0, 0, 0
"TRIP_LOAD_671_C_H_23", 0.12, 1,    91.3687,  143.1,    1.3188, 2,    91.3686,  -36.9,    1.3188, 0, 0, 0, 0
"TRIP_LOAD_645_C_H_39", 0.12, 1,      89.76,  143.9,    1.2956, 2,    89.7599,  -36.1,    1.2956, 0, 0, 0, 0
"TRIP_LOAD_671_C_H_20", 0.12, 1,    91.3687,  143.1,    1.3188, 2,    91.3686,  -36.9,    1.3188, 0, 0, 0, 0
"TRIP_LOAD_645_C_H_38", 0.12, 1,      89.76,  143.9,    1.2956, 2,    89.7599,  -36.1,    1.2956, 0, 0, 0, 0
"TRIP_LOAD_671_C_H_21", 0.12, 1,    91.3687,  143.1,    1.3188, 2,    91.3686,  -36.9,    1.3188, 0, 0, 0, 0
"TRIP_LOAD_671_C_H_28", 0.12, 1,    91.3687,  143.1,    1.3188, 2,    91.3686,  -36.9,    1.3188, 0, 0, 0, 0
"TRIP_LOAD_671_C_H_29", 0.12, 1,    91.3687,  143.1,    1.3188, 2,    91.3686,  -36.9,    1.3188, 0, 0, 0, 0
"TRIP_LOAD_645_C_H_40", 0.12, 1,      89.76,  143.9,    1.2956, 2,    89.7599,  -36.1,    1.2956, 0, 0, 0, 0
"TRIP_LOAD_671_C_H_15", 0.12, 1,    91.3687,  143.1,    1.3188, 2,    91.3686,  -36.9,    1.3188, 0, 0, 0, 0
"TRIP_LOAD_671_C_H_16", 0.12, 1,    91.3687,  143.1,    1.3188, 2,    91.3686,  -36.9,    1.3188, 0, 0, 0, 0
"TRIP_LOAD_671_C_H_13", 0.12, 1,    91.3687,  143.1,    1.3188, 2,    91.3686,  -36.9,    1.3188, 0, 0, 0, 0
"TRIP_LOAD_671_C_H_14", 0.12, 1,    91.3687,  143.1,    1.3188, 2,    91.3686,  -36.9,    1.3188, 0, 0, 0, 0
"TRIP_LOAD_671_C_H_11", 0.12, 1,    91.3687,  143.1,    1.3188, 2,    91.3686,  -36.9,    1.3188, 0, 0, 0, 0
"TRIP_LOAD_671_C_H_12", 0.12, 1,    91.3687,  143.1,    1.3188, 2,    91.3686,  -36.9,    1.3188, 0, 0, 0, 0
"TRIP_LOAD_671_C_H_10", 0.12, 1,    91.3687,  143.1,    1.3188, 2,    91.3686,  -36.9,    1.3188, 0, 0, 0, 0
"TRIP_LOAD_671_C_H_19", 0.12, 1,    91.3687,  143.1,    1.3188, 2,    91.3686,  -36.9,    1.3188, 0, 0, 0, 0
"TRIP_LOAD_671_C_H_17", 0.12, 1,    91.3687,  143.1,    1.3188, 2,    91.3686,  -36.9,    1.3188, 0, 0, 0, 0
"TRIP_LOAD_671_C_H_18", 0.12, 1,    91.3687,  143.1,    1.3188, 2,    91.3686,  -36.9,    1.3188, 0, 0, 0, 0
"TRIP_LOAD_632_B_H_11", 0.12, 1,    90.1652,  -94.7,    1.3014, 2,    90.1651,   85.3,    1.3014, 0, 0, 0, 0
"TRIP_LOAD_632_B_H_12", 0.12, 1,    90.1652,  -94.7,    1.3014, 2,    90.1651,   85.3,    1.3014, 0, 0, 0, 0
"TRIP_LOAD_632_B_H_10", 0.12, 1,    90.1652,  -94.7,    1.3014, 2,    90.1651,   85.3,    1.3014, 0, 0, 0, 0
"TRIP_LOAD_632_B_H_15", 0.12, 1,    90.1652,  -94.7,    1.3014, 2,    90.1651,   85.3,    1.3014, 0, 0, 0, 0
"TRIP_LOAD_632_B_H_16", 0.12, 1,    90.1652,  -94.7,    1.3014, 2,    90.1651,   85.3,    1.3014, 0, 0, 0, 0
"TRIP_LOAD_632_B_H_13", 0.12, 1,    90.1652,  -94.7,    1.3014, 2,    90.1651,   85.3,    1.3014, 0, 0, 0, 0
"TRIP_LOAD_632_B_H_14", 0.12, 1,    90.1652,  -94.7,    1.3014, 2,    90.1651,   85.3,    1.3014, 0, 0, 0, 0
"TRIP_LOAD_632_B_H_19", 0.12, 1,    90.1652,  -94.7,    1.3014, 2,    90.1651,   85.3,    1.3014, 0, 0, 0, 0
"TRIP_LOAD_632_B_H_17", 0.12, 1,    90.1652,  -94.7,    1.3014, 2,    90.1651,   85.3,    1.3014, 0, 0, 0, 0
"TRIP_LOAD_632_B_H_18", 0.12, 1,    90.1652,  -94.7,    1.3014, 2,    90.1651,   85.3,    1.3014, 0, 0, 0, 0
"TRIP_LOAD_632_B_H_22", 0.12, 1,    90.1652,  -94.7,    1.3014, 2,    90.1651,   85.3,    1.3014, 0, 0, 0, 0
"TRIP_LOAD_632_B_H_23", 0.12, 1,    90.1652,  -94.7,    1.3014, 2,    90.1651,   85.3,    1.3014, 0, 0, 0, 0
"TRIP_LOAD_632_B_H_20", 0.12, 1,    90.1652,  -94.7,    1.3014, 2,    90.1651,   85.3,    1.3014, 0, 0, 0, 0
"TRIP_LOAD_632_B_H_21", 0.12, 1,    90.1652,  -94.7,    1.3014, 2,    90.1651,   85.3,    1.3014, 0, 0, 0, 0
"TRIP_LOAD_632_B_H_26", 0.12, 1,    90.1652,  -94.7,    1.3014, 2,    90.1651,   85.3,    1.3014, 0, 0, 0, 0
"TRIP_LOAD_632_B_H_27", 0.12, 1,    90.1652,  -94.7,    1.3014, 2,    90.1651,   85.3,    1.3014, 0, 0, 0, 0
"TRIP_LOAD_632_B_H_24", 0.12, 1,    90.1652,  -94.7,    1.3014, 2,    90.1651,   85.3,    1.3014, 0, 0, 0, 0
"TRIP_LOAD_632_B_H_25", 0.12, 1,    90.1652,  -94.7,    1.3014, 2,    90.1651,   85.3,    1.3014, 0, 0, 0, 0
"TRIP_LOAD_632_B_H_28", 0.12, 1,    90.1652,  -94.7,    1.3014, 2,    90.1651,   85.3,    1.3014, 0, 0, 0, 0
"TRIP_LOAD_632_B_H_29", 0.12, 1,    90.1652,  -94.7,    1.3014, 2,    90.1651,   85.3,    1.3014, 0, 0, 0, 0
"TRIP_LOAD_633_B_H_24", 0.12, 1,    90.1572,  -94.7,    1.3013, 2,    90.1571,   85.3,    1.3013, 0, 0, 0, 0
"TRIP_LOAD_633_B_H_23", 0.12, 1,    90.1572,  -94.7,    1.3013, 2,    90.1571,   85.3,    1.3013, 0, 0, 0, 0
"TRIP_LOAD_633_B_H_22", 0.12, 1,    90.1572,  -94.7,    1.3013, 2,    90.1571,   85.3,    1.3013, 0, 0, 0, 0
"TRIP_LOAD_633_B_H_21", 0.12, 1,    90.1572,  -94.7,    1.3013, 2,    90.1571,   85.3,    1.3013, 0, 0, 0, 0
"TRIP_LOAD_633_B_H_20", 0.12, 1,    90.1572,  -94.7,    1.3013, 2,    90.1571,   85.3,    1.3013, 0, 0, 0, 0
"TRIP_LOAD_633_B_H_29", 0.12, 1,    90.1572,  -94.7,    1.3013, 2,    90.1571,   85.3,    1.3013, 0, 0, 0, 0
"TRIP_LOAD_633_B_H_28", 0.12, 1,    90.1572,  -94.7,    1.3013, 2,    90.1571,   85.3,    1.3013, 0, 0, 0, 0
"TRIP_LOAD_633_B_H_27", 0.12, 1,    90.1572,  -94.7,    1.3013, 2,    90.1571,   85.3,    1.3013, 0, 0, 0, 0
"TRIP_LOAD_633_B_H_26", 0.12, 1,    90.1572,  -94.7,    1.3013, 2,    90.1571,   85.3,    1.3013, 0, 0, 0, 0
"TRIP_LOAD_633_B_H_25", 0.12, 1,    90.1572,  -94.7,    1.3013, 2,    90.1571,   85.3,    1.3013, 0, 0, 0, 0
"TRIP_LOAD_675_C_H_6", 0.12, 1,    91.8521,  142.9,    1.3258, 2,     91.852,  -37.1,    1.3258, 0, 0, 0, 0
"TRIP_LOAD_632_B_H_30", 0.12, 1,    90.1652,  -94.7,    1.3014, 2,    90.1651,   85.3,    1.3014, 0, 0, 0, 0
"TRIP_LOAD_675_C_H_7", 0.12, 1,    91.8521,  142.9,    1.3258, 2,     91.852,  -37.1,    1.3258, 0, 0, 0, 0
"TRIP_LOAD_692_C_H_9", 0.12, 1,    91.3687,  143.1,    1.3188, 2,    91.3686,  -36.9,    1.3188, 0, 0, 0, 0
"TRIP_LOAD_675_C_H_8", 0.12, 1,    91.8521,  142.9,    1.3258, 2,     91.852,  -37.1,    1.3258, 0, 0, 0, 0
"TRIP_LOAD_692_C_H_8", 0.12, 1,    91.3687,  143.1,    1.3188, 2,    91.3686,  -36.9,    1.3188, 0, 0, 0, 0
"TRIP_LOAD_675_C_H_9", 0.12, 1,    91.8521,  142.9,    1.3258, 2,     91.852,  -37.1,    1.3258, 0, 0, 0, 0
"TRIP_LOAD_692_C_H_7", 0.12, 1,    91.3687,  143.1,    1.3188, 2,    91.3686,  -36.9,    1.3188, 0, 0, 0, 0
"TRIP_LOAD_632_B_H_33", 0.12, 1,    90.1652,  -94.7,    1.3014, 2,    90.1651,   85.3,    1.3014, 0, 0, 0, 0
"TRIP_LOAD_692_C_H_6", 0.12, 1,    91.3687,  143.1,    1.3188, 2,    91.3686,  -36.9,    1.3188, 0, 0, 0, 0
"TRIP_LOAD_632_B_H_34", 0.12, 1,    90.1652,  -94.7,    1.3014, 2,    90.1651,   85.3,    1.3014, 0, 0, 0, 0
"TRIP_LOAD_692_C_H_5", 0.12, 1,    91.3687,  143.1,    1.3188, 2,    91.3686,  -36.9,    1.3188, 0, 0, 0, 0
"TRIP_LOAD_632_B_H_31", 0.12, 1,    90.1652,  -94.7,    1.3014, 2,    90.1651,   85.3,    1.3014, 0, 0, 0, 0
"TRIP_LOAD_692_C_H_4", 0.12, 1,    91.3687,  143.1,    1.3188, 2,    91.3686,  -36.9,    1.3188, 0, 0, 0, 0
"TRIP_LOAD_632_B_H_32", 0.12, 1,    90.1652,  -94.7,    1.3014, 2,    90.1651,   85.3,    1.3014, 0, 0, 0, 0
"TRIP_LOAD_692_C_H_3", 0.12, 1,    91.3687,  143.1,    1.3188, 2,    91.3686,  -36.9,    1.3188, 0, 0, 0, 0
"TRIP_LOAD_632_B_H_37", 0.12, 1,    90.1652,  -94.7,    1.3014, 2,    90.1651,   85.3,    1.3014, 0, 0, 0, 0
"TRIP_LOAD_692_C_H_2", 0.12, 1,    91.3687,  143.1,    1.3188, 2,    91.3686,  -36.9,    1.3188, 0, 0, 0, 0
"TRIP_LOAD_632_B_H_38", 0.12, 1,    90.1652,  -94.7,    1.3014, 2,    90.1651,   85.3,    1.3014, 0, 0, 0, 0
"TRIP_LOAD_692_C_H_1", 0.12, 1,    91.3687,  143.1,    1.3188, 2,    91.3686,  -36.9,    1.3188, 0, 0, 0, 0
"TRIP_LOAD_632_B_H_35", 0.12, 1,    90.1652,  -94.7,    1.3014, 2,    90.1651,   85.3,    1.3014, 0, 0, 0, 0
"TRIP_LOAD_632_B_H_36", 0.12, 1,    90.1652,  -94.7,    1.3014, 2,    90.1651,   85.3,    1.3014, 0, 0, 0, 0
"TRIP_LOAD_632_B_H_39", 0.12, 1,    90.1652,  -94.7,    1.3014, 2,    90.1651,   85.3,    1.3014, 0, 0, 0, 0
"TRIP_LOAD_671_A_H_40", 0.12, 1,    91.5022,   22.8,    1.3207, 2,    91.5021, -157.2,    1.3207, 0, 0, 0, 0
"TRIP_LOAD_633_B_H_13", 0.12, 1,    90.1572,  -94.7,    1.3013, 2,    90.1571,   85.3,    1.3013, 0, 0, 0, 0
"TRIP_LOAD_633_B_H_12", 0.12, 1,    90.1572,  -94.7,    1.3013, 2,    90.1571,   85.3,    1.3013, 0, 0, 0, 0
"TRIP_LOAD_633_B_H_11", 0.12, 1,    90.1572,  -94.7,    1.3013, 2,    90.1571,   85.3,    1.3013, 0, 0, 0, 0
"TRIP_LOAD_633_B_H_10", 0.12, 1,    90.1572,  -94.7,    1.3013, 2,    90.1571,   85.3,    1.3013, 0, 0, 0, 0
"TRIP_LOAD_633_B_H_19", 0.12, 1,    90.1572,  -94.7,    1.3013, 2,    90.1571,   85.3,    1.3013, 0, 0, 0, 0
"TRIP_LOAD_633_B_H_18", 0.12, 1,    90.1572,  -94.7,    1.3013, 2,    90.1571,   85.3,    1.3013, 0, 0, 0, 0
"TRIP_LOAD_675_C_H_1", 0.12, 1,    91.8521,  142.9,    1.3258, 2,     91.852,  -37.1,    1.3258, 0, 0, 0, 0
"TRIP_LOAD_633_B_H_17", 0.12, 1,    90.1572,  -94.7,    1.3013, 2,    90.1571,   85.3,    1.3013, 0, 0, 0, 0
"TRIP_LOAD_675_C_H_2", 0.12, 1,    91.8521,  142.9,    1.3258, 2,     91.852,  -37.1,    1.3258, 0, 0, 0, 0
"TRIP_LOAD_633_B_H_16", 0.12, 1,    90.1572,  -94.7,    1.3013, 2,    90.1571,   85.3,    1.3013, 0, 0, 0, 0
"TRIP_LOAD_675_C_H_3", 0.12, 1,    91.8521,  142.9,    1.3258, 2,     91.852,  -37.1,    1.3258, 0, 0, 0, 0
"TRIP_LOAD_633_B_H_15", 0.12, 1,    90.1572,  -94.7,    1.3013, 2,    90.1571,   85.3,    1.3013, 0, 0, 0, 0
"TRIP_LOAD_675_C_H_4", 0.12, 1,    91.8521,  142.9,    1.3258, 2,     91.852,  -37.1,    1.3258, 0, 0, 0, 0
"TRIP_LOAD_633_B_H_14", 0.12, 1,    90.1572,  -94.7,    1.3013, 2,    90.1571,   85.3,    1.3013, 0, 0, 0, 0
"TRIP_LOAD_675_C_H_5", 0.12, 1,    91.8521,  142.9,    1.3258, 2,     91.852,  -37.1,    1.3258, 0, 0, 0, 0
"TRIP_LOAD_632_B_H_40", 0.12, 1,    90.1652,  -94.7,    1.3014, 2,    90.1651,   85.3,    1.3014, 0, 0, 0, 0
"TRIP_LOAD_671_A_H_35", 0.12, 1,    91.5022,   22.8,    1.3207, 2,    91.5021, -157.2,    1.3207, 0, 0, 0, 0
"TRIP_LOAD_680_C_H_15", 0.12, 1,    91.3497,  143.1,    1.3185, 2,    91.3496,  -36.9,    1.3185, 0, 0, 0, 0
"TRIP_LOAD_692_B_H_36", 0.12, 1,    91.9158,  -95.3,    1.3267, 2,    91.9157,   84.7,    1.3267, 0, 0, 0, 0
"TRIP_LOAD_671_A_H_36", 0.12, 1,    91.5022,   22.8,    1.3207, 2,    91.5021, -157.2,    1.3207, 0, 0, 0, 0
"TRIP_LOAD_680_C_H_16", 0.12, 1,    91.3497,  143.1,    1.3185, 2,    91.3496,  -36.9,    1.3185, 0, 0, 0, 0
"TRIP_LOAD_692_B_H_35", 0.12, 1,    91.9158,  -95.3,    1.3267, 2,    91.9157,   84.7,    1.3267, 0, 0, 0, 0
"TRIP_LOAD_671_A_H_33", 0.12, 1,    91.5022,   22.8,    1.3207, 2,    91.5021, -157.2,    1.3207, 0, 0, 0, 0
"TRIP_LOAD_680_C_H_17", 0.12, 1,    91.3497,  143.1,    1.3185, 2,    91.3496,  -36.9,    1.3185, 0, 0, 0, 0
"TRIP_LOAD_692_B_H_34", 0.12, 1,    91.9158,  -95.3,    1.3267, 2,    91.9157,   84.7,    1.3267, 0, 0, 0, 0
"TRIP_LOAD_671_A_H_34", 0.12, 1,    91.5022,   22.8,    1.3207, 2,    91.5021, -157.2,    1.3207, 0, 0, 0, 0
"TRIP_LOAD_680_C_H_18", 0.12, 1,    91.3497,  143.1,    1.3185, 2,    91.3496,  -36.9,    1.3185, 0, 0, 0, 0
